!	Fieldfox Controller
!	Chapman University - Class ENG398
!	Introduction to RF - DMG (2024)
! 
!Created with skrf (http://scikit-rf.org).
# Hz S RI R 50.0 
!freq ReS11 ImS11 ReS21 ImS21 ReS12 ImS12 ReS22 ImS22
10000000.0 -0.9931970685 0.0479734301 1.48836e-05 -3.32908e-05 3.96919e-05 -3.62277e-05 -0.9926083027 0.0476795506
11248750.0 -0.9928165614 0.0538785163 -5.02959e-05 7.8118e-06 1.85791e-05 -3.6943e-06 -0.9919951773 0.053835757
12497500.0 -0.9922318642 0.0595559179 1.18759e-05 2.16564e-05 -9.7675e-06 -3.71724e-05 -0.9915391153 0.0592620029
13746250.0 -0.9917238909 0.0655215764 -1.13871e-05 -5.39734e-05 1.34105e-05 -5.57133e-05 -0.9910794974 0.0654084194
14995000.0 -0.9912231438 0.0711861408 -9.6655e-06 -5.41189e-05 -2.58353e-05 -1.7798e-06 -0.9902970318 0.0712218931
16243750.0 -0.9907019689 0.0771171715 -1.69697e-05 6.876e-07 -5.7851e-06 -0.0001022796 -0.9898677897 0.0769667285
17492500.0 -0.9902627217 0.0828390396 -8.9169e-06 2.79877e-05 -1.50876e-05 -3.37728e-05 -0.9889204598 0.0828541449
18741250.0 -0.9893271988 0.0886210085 -1.71338e-05 -4.6197e-06 3.79868e-05 -1.60559e-05 -0.9885876579 0.0887351017
19990000.0 -0.9886720267 0.0944010088 5.1557e-06 -5.02445e-05 3.4978e-05 -9.90639e-05 -0.9875624374 0.0941135925
21238750.0 -0.9880555779 0.1003012315 1.18617e-05 -7.57409e-05 -2.34671e-05 -1.42685e-05 -0.9873928397 0.1001824109
22487500.0 -0.9870879463 0.1058360244 8.2948e-06 -8.56957e-05 -6.78791e-05 -5.92171e-05 -0.9867034989 0.106033486
23736250.0 -0.9864392717 0.1116766853 -7.963e-06 -9.47233e-05 -4.51199e-05 -8.15607e-05 -0.9856968927 0.1115205935
24985000.0 -0.985942258 0.1173633393 -9.1415e-06 -0.000105973 -2.5486e-05 -0.0001306595 -0.984641052 0.1175394841
26233750.0 -0.9851132739 0.123478483 5.6792e-06 -0.0001121863 3.22587e-05 -0.0001232929 -0.984198571 0.1231029533
27482500.0 -0.983927563 0.1290175359 -3.94549e-05 -0.0001065469 -8.4196e-06 -0.0001266608 -0.9831988356 0.1287016993
28731250.0 -0.9832861876 0.1345923279 -8.75972e-05 -0.0001497947 -2.6012e-06 -0.0002143373 -0.9822391413 0.1344620546
29980000.0 -0.9821687477 0.1401980367 -4.54571e-05 -0.0001629979 -3.39695e-05 -0.0001969781 -0.9813071572 0.1401088345
31228750.0 -0.9810566056 0.1461249462 -0.0001009334 -0.0001658188 -1.46466e-05 -0.0002037211 -0.9805006991 0.1456776009
32477500.0 -0.9799485705 0.1516810812 -5.05908e-05 -0.0002034098 -6.99035e-05 -0.0002135451 -0.9792290279 0.1516135481
33726250.0 -0.9790651726 0.1574640426 -5.86602e-05 -0.0002604209 -2.09016e-05 -0.0002534064 -0.9785870587 0.1572253769
34975000.0 -0.9782049297 0.162903587 -7.53445e-05 -0.0003119949 -9.94944e-05 -0.0002003447 -0.9771173564 0.1630704801
36223750.0 -0.9766246757 0.1687902592 -7.81279e-05 -0.0002375271 -8.27504e-05 -0.0002669515 -0.9765422524 0.1686765897
37472500.0 -0.9757194775 0.1743202851 -3.46969e-05 -0.0003626881 -8.60777e-05 -0.0003026699 -0.9750081655 0.1741634225
38721250.0 -0.9746102406 0.1799057966 -0.0001140439 -0.0002818784 -7.25738e-05 -0.0004096693 -0.9738409883 0.1796616747
39970000.0 -0.9734163442 0.1858087676 -0.0001095663 -0.0004130386 -0.0001094505 -0.0003904483 -0.9729643119 0.1851639253
41218750.0 -0.9722996567 0.1911813523 -0.0001597049 -0.0004166576 -0.0001493116 -0.0004117327 -0.971566378 0.1908497686
42467500.0 -0.9710243062 0.1966059335 -0.0001253006 -0.0004692211 -0.0001303877 -0.000488126 -0.9703956989 0.1963751108
43716250.0 -0.9695514094 0.2021302086 -0.0001419304 -0.000551624 -0.0001491958 -0.0004830834 -0.9690043298 0.2021808114
44965000.0 -0.9684721141 0.2076077868 -0.0002184631 -0.0005146292 -0.0001563771 -0.0005922523 -0.9678417757 0.2076690915
46213750.0 -0.9669244754 0.2135558291 -0.0001605798 -0.0005851665 -0.0001764496 -0.0005965128 -0.9663693789 0.2132050681
47462500.0 -0.9655866792 0.2189546337 -0.0001915563 -0.0007443897 -0.0001613262 -0.0006569027 -0.964926284 0.2186444399
48711250.0 -0.9640877004 0.2247057722 -0.0002830689 -0.0007161395 -0.0002159186 -0.00069019 -0.9635190322 0.2241065506
49960000.0 -0.9625616601 0.2300071103 -0.000222194 -0.0007327994 -0.0002313283 -0.0007780364 -0.962241142 0.2297763722
51208750.0 -0.9613761997 0.2361445325 -0.0003284854 -0.0008218465 -0.0002662272 -0.0008138657 -0.9609967134 0.2353902757
52457500.0 -0.9598287398 0.2414351953 -0.0002737424 -0.0008649377 -0.0002607549 -0.000853544 -0.9595975319 0.2407160092
53706250.0 -0.958339689 0.2466450071 -0.0003663085 -0.0009786152 -0.0003289614 -0.000963638 -0.9577557126 0.2462208883
54955000.0 -0.9569212708 0.2525015057 -0.0003487227 -0.0009794914 -0.0003677885 -0.0010023256 -0.9560802951 0.2520228731
56203750.0 -0.9550666002 0.2581273888 -0.0003415741 -0.0010351796 -0.0004126178 -0.0010697708 -0.9546221762 0.2574481738
57452500.0 -0.9538169402 0.2636764292 -0.0004145566 -0.0011368695 -0.0004356491 -0.0011196946 -0.9531634293 0.2624327849
58701250.0 -0.9517459987 0.2687185056 -0.00040354 -0.0011745579 -0.0004597504 -0.0012109888 -0.9514775588 0.2682146763
59950000.0 -0.950208739 0.2739685915 -0.0004663573 -0.0012985903 -0.0004864134 -0.0012919933 -0.9496066299 0.2736714445
61198750.0 -0.9482216407 0.2795812019 -0.000560944 -0.0013320209 -0.0004791724 -0.0013745125 -0.9480971219 0.279188371
62447500.0 -0.9463728282 0.285131866 -0.0005778619 -0.0014913178 -0.0006177706 -0.0014870609 -0.9463601265 0.284554642
63696250.0 -0.9448909286 0.2908977421 -0.0006073956 -0.0015604127 -0.0006388135 -0.001554703 -0.9445175304 0.2902144642
64945000.0 -0.9428852715 0.2963488586 -0.000682229 -0.0016592726 -0.0006658536 -0.0016216506 -0.9426441369 0.2952763166
66193750.0 -0.9412303896 0.30153143 -0.0006983112 -0.0016774258 -0.0007089795 -0.0017392588 -0.9410277381 0.3004514537
67442500.0 -0.9391888572 0.3067997671 -0.0007293376 -0.0017964273 -0.0007338424 -0.0017848271 -0.9391320141 0.306454646
68691250.0 -0.9370184251 0.3126967277 -0.0008059803 -0.0019389582 -0.0007440821 -0.0018627533 -0.9370193038 0.3113615448
69940000.0 -0.9353518426 0.3181645506 -0.0008535605 -0.0020086337 -0.0008696605 -0.0019927675 -0.9352546926 0.3169412593
71188750.0 -0.9332856486 0.3233665269 -0.00081078 -0.0021277977 -0.0009248912 -0.0021176008 -0.9332141466 0.322187099
72437500.0 -0.9315022301 0.3288712279 -0.0009947937 -0.0021629279 -0.0009878154 -0.0022695761 -0.9312036979 0.3274987697
73686250.0 -0.9290858601 0.3342638954 -0.0009812005 -0.0023050958 -0.0010530837 -0.0022767906 -0.9291873347 0.3328246015
74935000.0 -0.9273633053 0.3395438288 -0.0010877442 -0.0024034334 -0.0011176874 -0.0024030515 -0.9268273347 0.3387939374
76183750.0 -0.9249904597 0.3449543938 -0.0011996759 -0.002578822 -0.0011695763 -0.0025895891 -0.9246703791 0.3437970883
77432500.0 -0.9229270608 0.3501907823 -0.0012359679 -0.0026737487 -0.0012394056 -0.0027066958 -0.9230014881 0.3491754172
78681250.0 -0.9208565407 0.3554575534 -0.0013604061 -0.0028141574 -0.0013731337 -0.0028462886 -0.9207874553 0.3536772835
79930000.0 -0.9187731168 0.3612046877 -0.0013789166 -0.0028954476 -0.0014176279 -0.0029774522 -0.9187850968 0.359702224
81178750.0 -0.9163713617 0.3661900587 -0.0014505387 -0.0030436666 -0.0015300603 -0.0030141191 -0.9163997321 0.3646914527
82427500.0 -0.9138552642 0.3717034755 -0.0015501862 -0.0031146595 -0.0016058851 -0.003197887 -0.9141165349 0.3702889457
83676250.0 -0.9118964483 0.3766884087 -0.0016087888 -0.0032681076 -0.0016955038 -0.0033494181 -0.9119496451 0.3752989453
84925000.0 -0.9096143766 0.3824337131 -0.0017729607 -0.0034988673 -0.0017619676 -0.0034877604 -0.9095356549 0.3804341721
86173750.0 -0.9068100862 0.3871033629 -0.0018838576 -0.0035756018 -0.0018986954 -0.003576787 -0.9069132001 0.3857182088
87422500.0 -0.9045092349 0.3927592473 -0.0019378019 -0.0036720418 -0.0020188363 -0.0037556815 -0.9047539157 0.3911680926
88671250.0 -0.9019757332 0.3984842621 -0.0020363099 -0.0038999292 -0.0020692629 -0.0039362674 -0.9021227718 0.3964380512
89920000.0 -0.8996423456 0.4031875781 -0.0021601733 -0.0040962853 -0.0022083417 -0.0040628723 -0.8995277616 0.4015531421
91168750.0 -0.897021377 0.4085013021 -0.0023117749 -0.0042235944 -0.0022594962 -0.0041904018 -0.8972988096 0.4067074405
92417500.0 -0.894704078 0.4134442186 -0.002360981 -0.0044031104 -0.002423775 -0.0043510081 -0.8947809793 0.4121051734
93666250.0 -0.89202324 0.4190006161 -0.002513181 -0.0044981815 -0.0025776835 -0.004540098 -0.8924119466 0.4169120225
94915000.0 -0.8894294415 0.4241961454 -0.0026408178 -0.004665469 -0.0026486562 -0.004784724 -0.8897957806 0.4223158844
96163750.0 -0.8870698023 0.4292176302 -0.0027899712 -0.0048859866 -0.0028734711 -0.0049181879 -0.8873241723 0.4272596941
97412500.0 -0.884278441 0.4346789164 -0.0028506272 -0.0049850108 -0.0029710099 -0.0050975688 -0.8844968179 0.4327058925
98661250.0 -0.8815579939 0.4399267779 -0.0030261378 -0.0052071829 -0.0031106513 -0.0052542484 -0.8816018549 0.4377435933
99910000.0 -0.8788095387 0.4445451961 -0.0031405329 -0.0054241619 -0.0032170939 -0.0054303357 -0.879215162 0.4428336068
101158750.0 -0.8759123412 0.4499060494 -0.0033536505 -0.0056344884 -0.0033788565 -0.0056261305 -0.8766586411 0.4475955217
102407500.0 -0.8734146447 0.4549565962 -0.0035237722 -0.0058082002 -0.0035602557 -0.0058535353 -0.8737062905 0.4530389519
103656250.0 -0.8705071895 0.4597532093 -0.0036591663 -0.0059548391 -0.003678618 -0.0060210258 -0.8708991166 0.4580633358
104905000.0 -0.8680026672 0.4653563932 -0.0038427634 -0.006192384 -0.0038945066 -0.0062234885 -0.8679121134 0.4630623914
106153750.0 -0.8647052197 0.4702606158 -0.0039914338 -0.006401724 -0.004081941 -0.0064475883 -0.8651153196 0.4683169786
107402500.0 -0.8618398689 0.4756478184 -0.0042095708 -0.0066136328 -0.0042371689 -0.0066246215 -0.8619953759 0.4733030749
108651250.0 -0.8585416015 0.4805451257 -0.0044523869 -0.0068122879 -0.0044276727 -0.0068162913 -0.8591183603 0.4783763453
109900000.0 -0.8560688493 0.4854630759 -0.0045642875 -0.0070533043 -0.0046181813 -0.0070386925 -0.8564142983 0.4832927777
111148750.0 -0.8526679304 0.4906292783 -0.0048025202 -0.0072776957 -0.0048305301 -0.0072369042 -0.853349101 0.4883542791
112397500.0 -0.8497407651 0.4955019898 -0.0049504531 -0.0074346834 -0.0050278111 -0.0074749177 -0.8502928698 0.4934645893
113646250.0 -0.8466945875 0.5006976322 -0.005130315 -0.0077025916 -0.0052678178 -0.0076942622 -0.8471696148 0.4980600147
114895000.0 -0.8436215343 0.5056867627 -0.0054179106 -0.0079059753 -0.0054636476 -0.007916431 -0.8439741583 0.5033278289
116143750.0 -0.8405059134 0.5105828726 -0.0056650162 -0.0081478433 -0.0057139155 -0.0081028999 -0.8407178852 0.5082348052
117392500.0 -0.8372782598 0.515690581 -0.0058896156 -0.0083443 -0.0058994854 -0.0083122714 -0.8377642389 0.5133949116
118641250.0 -0.8337192551 0.520419502 -0.0060974532 -0.0086194049 -0.0061238738 -0.0086484347 -0.8345984719 0.5177783667
119890000.0 -0.8306686013 0.5256992822 -0.0063644228 -0.0087870043 -0.0064003364 -0.0088533313 -0.8315146167 0.5228198356
121138750.0 -0.8273228812 0.5303170181 -0.0066461927 -0.0090429092 -0.0066133966 -0.0090508214 -0.828165861 0.5278491617
122387500.0 -0.8244709076 0.5355575357 -0.0069213804 -0.0093402202 -0.0069250311 -0.0093243386 -0.8249976472 0.5327641615
123636250.0 -0.8208735071 0.5400826119 -0.0070870776 -0.0095600925 -0.0072033241 -0.0095789425 -0.8214076549 0.5376242149
124885000.0 -0.8177307926 0.5453799343 -0.0074375189 -0.0098508187 -0.0074984173 -0.0099052051 -0.8179048588 0.5422878768
126133750.0 -0.814021087 0.5501585612 -0.0077108997 -0.010062002 -0.0077538438 -0.0101002162 -0.8147501483 0.547275228
127382500.0 -0.8104071459 0.5548578097 -0.0079835907 -0.0103365387 -0.0080369044 -0.0103796409 -0.8112514972 0.552097994
128631250.0 -0.8070783896 0.5595961478 -0.008325534 -0.0106090682 -0.008350771 -0.0106119393 -0.8080003426 0.5568000424
129880000.0 -0.8038119865 0.5644079819 -0.0085778297 -0.010917261 -0.0086499216 -0.0109056009 -0.8042556291 0.5620561162
131128750.0 -0.8000004845 0.5697735519 -0.0088803013 -0.0111620337 -0.0090274187 -0.0111738778 -0.800791011 0.5666425419
132377500.0 -0.7966828615 0.5742938305 -0.0092867403 -0.0114286366 -0.0092853801 -0.0114355303 -0.7973282947 0.5712975235
133626250.0 -0.7930378972 0.5792147844 -0.0095877647 -0.0117626001 -0.0096769827 -0.0116831115 -0.7934400739 0.5762696622
134875000.0 -0.7894577223 0.5836620295 -0.0099323449 -0.0120647102 -0.0099743709 -0.0120318659 -0.7901600582 0.5809966661
136123750.0 -0.7857258534 0.5884373175 -0.010255763 -0.0122502271 -0.0103655522 -0.0123048299 -0.7865544285 0.5856900006
137372500.0 -0.7822783579 0.5932797194 -0.0106518656 -0.0125271568 -0.0107629487 -0.0125392501 -0.7829626909 0.5902778321
138621250.0 -0.7782841984 0.5979471101 -0.0110401635 -0.0128372334 -0.0110932215 -0.0128302172 -0.7791384432 0.595196725
139870000.0 -0.7742902789 0.6025418712 -0.0113927528 -0.0131214121 -0.0114831597 -0.0131121557 -0.7754616285 0.5997940977
141118750.0 -0.7707055471 0.607417088 -0.0118008539 -0.0134673221 -0.0118913287 -0.0133609606 -0.7717440026 0.6044425861
142367500.0 -0.7669759229 0.6119946224 -0.0122337733 -0.0137111998 -0.0123238621 -0.0137440882 -0.767759529 0.6089945445
143616250.0 -0.7628667419 0.6166158897 -0.0126056327 -0.0140497198 -0.0127274253 -0.014012311 -0.764182162 0.6133966878
144865000.0 -0.7591611333 0.620871917 -0.0129643811 -0.0143012801 -0.0130685883 -0.0143232149 -0.7601059092 0.6182993999
146113750.0 -0.7556050333 0.6257626645 -0.0134543414 -0.0146097443 -0.0135658453 -0.0146093382 -0.7563686936 0.6227116051
147362500.0 -0.7515937217 0.6303196343 -0.013836219 -0.0149080576 -0.013993561 -0.0149502554 -0.7524910981 0.6272477648
148611250.0 -0.7475241203 0.6350205886 -0.0143538915 -0.0151507591 -0.0144640068 -0.0151752938 -0.7484391304 0.6319892269
149860000.0 -0.7432793465 0.6392085597 -0.0148279677 -0.0155316171 -0.0149263911 -0.0154483586 -0.7440494875 0.636362761
151108750.0 -0.7394434538 0.6439695783 -0.0153545372 -0.015800224 -0.01539568 -0.0158066118 -0.7404311815 0.6410964958
152357500.0 -0.7352654217 0.6487529078 -0.015772633 -0.0161486902 -0.0159044103 -0.0161210626 -0.7362752099 0.6454594051
153606250.0 -0.7314161747 0.6531006562 -0.0162336463 -0.0164192517 -0.0163819224 -0.0164500127 -0.7320626657 0.650418534
154855000.0 -0.727197604 0.6573765912 -0.0167813269 -0.0167378842 -0.0169406551 -0.0168259379 -0.7279478715 0.6542415167
156103750.0 -0.7226290659 0.6614527575 -0.0173554863 -0.0171192544 -0.0174220614 -0.0170640501 -0.7237737566 0.6591986874
157352500.0 -0.7184737141 0.6658179683 -0.017861721 -0.0173659213 -0.0179951875 -0.0173229797 -0.7199660845 0.6634620382
158601250.0 -0.7140914326 0.670629398 -0.0183901633 -0.0177240009 -0.0185579885 -0.0176644182 -0.7153426122 0.6674514032
159850000.0 -0.7099449751 0.6751147506 -0.0189362442 -0.0180281467 -0.0190939881 -0.0180353224 -0.7109099379 0.6724952316
161098750.0 -0.7056194717 0.6795301389 -0.0195014342 -0.0183361563 -0.0196038701 -0.0183080362 -0.7067999237 0.676320952
162347500.0 -0.701402005 0.6835772837 -0.0200902023 -0.0186187077 -0.0201697171 -0.0185896523 -0.7024486003 0.6809852363
163596250.0 -0.6974627221 0.6879893935 -0.0206594018 -0.0190245841 -0.0208814096 -0.0189763703 -0.6983041769 0.6851268842
164845000.0 -0.6926454863 0.6920053752 -0.0213605517 -0.0193203278 -0.0213852491 -0.0192518894 -0.6935378451 0.6894949661
166093750.0 -0.6880709971 0.6961477145 -0.0218821786 -0.0196103111 -0.0219860312 -0.0196143247 -0.6894528178 0.6938386484
167342500.0 -0.6837757531 0.7008353485 -0.0224989 -0.0200128382 -0.0227527121 -0.0199496636 -0.6851837487 0.6979784869
168591250.0 -0.6794544206 0.7049182535 -0.0231865214 -0.0202432035 -0.0233427481 -0.020269035 -0.6806758785 0.702558393
169840000.0 -0.6745859501 0.7089189088 -0.0238299377 -0.0206154981 -0.0239714593 -0.0205400096 -0.6761069562 0.7063167031
171088750.0 -0.6702855574 0.7131654571 -0.0245105747 -0.0208704926 -0.0246762346 -0.0209032613 -0.67162873 0.7105519053
172337500.0 -0.6657004183 0.7173204284 -0.0252492838 -0.0213268855 -0.0254147553 -0.0211922048 -0.6668753581 0.714994486
173586250.0 -0.661082647 0.7218286097 -0.025936641 -0.0215725116 -0.0260941684 -0.0215026612 -0.6622176035 0.7186303022
174835000.0 -0.6562516691 0.7259140013 -0.0267113406 -0.0218768771 -0.0268474283 -0.0218089196 -0.6579162801 0.7225097944
176083750.0 -0.6518392601 0.7296765173 -0.0273026014 -0.0222401105 -0.0275651302 -0.0221876693 -0.6530652232 0.7268303738
177332500.0 -0.6469033634 0.7338383033 -0.0280807519 -0.0225494498 -0.0282894758 -0.0224771394 -0.6482690455 0.7313239017
178581250.0 -0.6419290849 0.7377976456 -0.0288764757 -0.022808208 -0.0290513136 -0.0227658681 -0.6436187211 0.7350976922
179830000.0 -0.6373216191 0.7415889932 -0.0296495898 -0.0232059227 -0.0298187858 -0.0230693506 -0.6387082272 0.7392727459
181078750.0 -0.6326061835 0.7453082366 -0.0303892815 -0.0234719381 -0.0306454348 -0.0234582772 -0.6341777106 0.743070584
182327500.0 -0.6276566497 0.7495964203 -0.0312400787 -0.0238223433 -0.0314325812 -0.0237345219 -0.6290059698 0.7471004353
183576250.0 -0.6226452291 0.753500553 -0.0320364415 -0.0240721135 -0.0322870356 -0.0239664748 -0.624466618 0.7507530685
184825000.0 -0.6178485171 0.7572662709 -0.0328042791 -0.0243719294 -0.0331670281 -0.0243000589 -0.6191630591 0.7547082402
186073750.0 -0.6126849864 0.761273247 -0.0337466184 -0.0246805492 -0.033966587 -0.0246239744 -0.6143286945 0.7587105701
187322500.0 -0.607759097 0.7651291975 -0.0345953724 -0.0250078282 -0.0348176915 -0.0248604487 -0.6091979896 0.7624792214
188571250.0 -0.6027519362 0.7688029462 -0.0354844977 -0.0253261416 -0.0357454611 -0.0251952874 -0.6044676676 0.766291164
189820000.0 -0.5977224234 0.7726345544 -0.0363710739 -0.0256466626 -0.0366932116 -0.025558215 -0.5992723796 0.7701952962
191068750.0 -0.5923923051 0.7760278163 -0.0373037596 -0.0259474855 -0.0376153134 -0.0258347712 -0.5943100224 0.7738290186
192317500.0 -0.5872148364 0.7801507549 -0.0382665439 -0.0261999944 -0.0385588719 -0.026040818 -0.5892618893 0.7773720166
193566250.0 -0.5823162184 0.7839264527 -0.0391437885 -0.0264277753 -0.0394958951 -0.0263682798 -0.5842913196 0.7811578448
194815000.0 -0.5771934763 0.7873955422 -0.0400901269 -0.0267475764 -0.0404299133 -0.0266443373 -0.5791064183 0.7849243814
196063750.0 -0.5719812727 0.7912654256 -0.041107028 -0.0270761047 -0.0414143507 -0.0269331091 -0.5738306998 0.7885717047
197312500.0 -0.5672481747 0.7947283111 -0.0421066425 -0.0273593301 -0.0423727631 -0.0271874952 -0.5686546153 0.7921157023
198561250.0 -0.5610344599 0.7983126419 -0.0431293739 -0.0275941993 -0.0434082657 -0.0274700558 -0.5631387255 0.7958243533
199810000.0 -0.5562985126 0.8019205708 -0.0441502787 -0.0278140376 -0.0444495793 -0.0277151008 -0.5581630872 0.7991183779
201058750.0 -0.5505417541 0.8054370821 -0.04519939 -0.0281298571 -0.0455297265 -0.027939256 -0.5526861284 0.8027610949
202307500.0 -0.5450043419 0.808422596 -0.046288737 -0.0284366221 -0.0466001745 -0.0282006002 -0.5471561381 0.8059181669
203556250.0 -0.5397606939 0.8119041766 -0.0473894728 -0.0286719771 -0.0476578051 -0.0284601652 -0.541940284 0.8097045139
204805000.0 -0.5343783676 0.8156523691 -0.0484746034 -0.0288744566 -0.0488023383 -0.028672261 -0.5363648982 0.8127663688
206053750.0 -0.5286472058 0.8190533255 -0.0495515971 -0.0291439503 -0.0499740183 -0.0289157115 -0.5311935427 0.8160189628
207302500.0 -0.5233136583 0.8222016314 -0.0507229431 -0.0293566193 -0.0510824574 -0.0290661386 -0.5257546249 0.819507734
208551250.0 -0.5178378975 0.8254431037 -0.0518775764 -0.029558666 -0.0521833124 -0.0294121031 -0.5199894969 0.822663982
209800000.0 -0.511824669 0.828775353 -0.0531291031 -0.0297955143 -0.0534224705 -0.0296229844 -0.5142694257 0.8258237654
211048750.0 -0.506195009 0.8321444469 -0.0543093258 -0.0300217154 -0.0545956707 -0.0297127129 -0.5088366108 0.8292397537
212297500.0 -0.500271643 0.8352428621 -0.0554986866 -0.0301773225 -0.0558816997 -0.0299829965 -0.5034552701 0.8326492537
213546250.0 -0.495151308 0.8388053432 -0.0567687566 -0.0303849483 -0.0570846662 -0.030076449 -0.4977629583 0.8353153739
