!	Fieldfox Controller
!	Chapman University - Class ENG398
!	Introduction to RF - DMG (2024)
! 
!Created with skrf (http://scikit-rf.org).
# Hz S RI R 50.0 
!freq ReS11 ImS11 ReS21 ImS21 ReS12 ImS12 ReS22 ImS22
10000000.0 1.000399887 -0.0128205331 -4.83919e-05 -5.03891e-05 1.47889e-05 -6.44588e-05 -0.9948436913 0.0152625054
13747500.0 1.0000852 -0.0174893071 -5.0171e-05 -8.61285e-05 1.86633e-05 4.0339e-06 -0.9950019337 0.0209070261
17495000.0 0.9999515321 -0.0221380905 -3.36373e-05 3.71232e-05 2.51531e-05 -2.0836e-06 -0.9945350075 0.0262046519
21242500.0 0.999599411 -0.0268255454 2.8148e-06 -4.71404e-05 5.46078e-05 -8.3806e-06 -0.9945648203 0.0314449112
24990000.0 0.9992094446 -0.0318185603 -4.7439e-05 -1.92316e-05 4.65703e-05 -2.4275e-06 -0.9947784813 0.0374200968
28737500.0 0.9992324824 -0.0365427867 -2.671e-07 1.0826e-05 2.32291e-05 4.379e-06 -0.9943339358 0.0426740886
32485000.0 0.9987863848 -0.0410700912 -2.91837e-05 -6.0269e-06 2.10191e-05 8.7258e-06 -0.9944844418 0.0483431992
36232500.0 0.9986062069 -0.0458502469 -8.15e-08 -4.29579e-05 2.18903e-05 7.4493e-06 -0.994066231 0.0537613917
39980000.0 0.998237309 -0.0506198415 -4.20358e-05 -4.6379e-06 -2.07578e-05 -1.5248e-05 -0.9941623072 0.0590082573
43727500.0 0.9977107565 -0.0550947458 2.92655e-05 1.51036e-05 -2.9585e-05 -4.46498e-05 -0.9939262804 0.0645365729
47475000.0 0.9973691066 -0.0600672698 -1.90534e-05 4.99805e-05 2.74978e-05 -2.22219e-05 -0.9936728253 0.0697928345
51222500.0 0.9969712022 -0.0646336953 1.48763e-05 1.58556e-05 2.34001e-05 1.10691e-05 -0.9933693338 0.0751727447
54970000.0 0.9966192554 -0.0691125739 3.9124e-06 -3.99932e-05 5.2539e-06 -2.1159e-05 -0.9930512987 0.0806564674
58717500.0 0.995944423 -0.0739321044 7.583e-07 -3.75301e-05 -1.27148e-05 -8.7351e-06 -0.9923516902 0.0857658823
62465000.0 0.9954593164 -0.0789788049 3.73707e-05 1.83258e-05 1.38934e-05 -2.43661e-05 -0.9921799275 0.0912098421
66212500.0 0.9953940742 -0.0830724686 1.71703e-05 6.9735e-06 -1.6848e-05 1.263e-05 -0.9914954746 0.0966277838
69960000.0 0.9947063295 -0.0881631945 3.1795e-05 -1.58767e-05 -1.62673e-05 3.22246e-05 -0.9911725541 0.1018608419
73707500.0 0.994082942 -0.0928374143 2.50072e-05 -1.38024e-05 -5.408e-07 8.69404e-05 -0.9906670382 0.107054954
77455000.0 0.9939751981 -0.0972181171 5.6728e-06 -1.106e-06 4.34484e-05 -0.0001178284 -0.9896354015 0.1123796954
81202500.0 0.993250153 -0.1023447275 -4.84979e-05 3.7858e-06 1.74271e-05 -3.7588e-06 -0.9887664336 0.117746736
84950000.0 0.9927786433 -0.1069366035 -3.75358e-05 6.7353e-06 5.59473e-05 -5.17642e-05 -0.9879818752 0.1228808821
88697500.0 0.9922882496 -0.1111905191 1.11921e-05 -2.48038e-05 7.73145e-05 -2.48764e-05 -0.9869720128 0.1281753646
92445000.0 0.9919761986 -0.1161823307 -4.18383e-05 3.76e-06 -5.3709e-05 -1.85314e-05 -0.9858936567 0.1328512806
96192500.0 0.9914791897 -0.1207692975 2.33502e-05 -4.35635e-05 -1.51068e-05 -4.5557e-06 -0.9848944478 0.1383116539
99940000.0 0.9909814383 -0.125302513 2.52599e-05 2.6666e-05 -9.6692e-06 -1.6351e-05 -0.9835429946 0.1435634915
103687500.0 0.9904477837 -0.1300593439 8.0252e-06 -4.00834e-05 4.50662e-05 -4.72731e-05 -0.9824196381 0.1485304262
107435000.0 0.9898454089 -0.1347353668 -7.4702e-05 1.34874e-05 5.73809e-05 -6.5268e-06 -0.9811246928 0.1539356903
111182500.0 0.9893825864 -0.1392297254 6.0197e-06 -3.30852e-05 4.01238e-05 4.47126e-05 -0.9797805959 0.1588949704
114930000.0 0.9888254245 -0.1442090431 1.2625e-06 3.2956e-06 -4.2399e-06 5.773e-07 -0.9783650642 0.1643584818
118677500.0 0.9881358501 -0.1485567086 1.73358e-05 3.2463e-06 2.79702e-05 1.33087e-05 -0.9774006507 0.1691812733
122425000.0 0.9871710508 -0.1534717472 2.06291e-05 1.27367e-05 -4.82063e-05 -1.8251e-05 -0.9757331945 0.1744875746
126172500.0 0.9868344073 -0.1578408542 6.24245e-05 -8.7142e-06 4.67656e-05 -7.908e-07 -0.9745680628 0.1798764181
129920000.0 0.9863838466 -0.1620715393 -9.06577e-05 -3.14877e-05 2.04628e-05 2.16785e-05 -0.9733796109 0.1846878641
133667500.0 0.9853058122 -0.1669218198 9.5621e-06 1.63406e-05 1.48331e-05 -7.47496e-05 -0.9720271305 0.1901726479
137415000.0 0.9847043936 -0.1717375256 -2.20492e-05 -4.39136e-05 3.29942e-05 -1.75501e-05 -0.9706821378 0.1951859495
141162500.0 0.9832728514 -0.1762208691 -1.889e-05 -2.9027e-06 5.4268e-05 3.8929e-06 -0.9692984801 0.2004462939
144910000.0 0.9828230032 -0.18064058 5.28097e-05 -3.02847e-05 -2.65958e-05 -2.40656e-05 -0.9680739582 0.2055190722
148657500.0 0.9818857832 -0.1856253535 2.10054e-05 8.5909e-06 3.86954e-05 1.3407e-06 -0.9670824204 0.2106043367
152405000.0 0.9804726672 -0.1898924056 5.5475e-06 -2.46891e-05 3.30589e-05 -3.03427e-05 -0.9658700643 0.216031141
156152500.0 0.9798401787 -0.1948802951 9.8098e-06 -1.91713e-05 -2.8042e-06 -6.85385e-05 -0.9645659963 0.2212996828
159900000.0 0.9792690925 -0.1993252788 2.7499e-06 5.92043e-05 1.8694e-05 -9.2154e-06 -0.9633657275 0.2263685648
163647500.0 0.9781088301 -0.2038442505 -4.80524e-05 -4.96183e-05 -5.4691e-06 9.81774e-05 -0.9625387894 0.231420073
167395000.0 0.9769527169 -0.2080807795 4.26522e-05 -5.6272e-06 -3.00944e-05 -2.18575e-05 -0.9610135753 0.2366401582
171142500.0 0.9763243725 -0.2124260578 -4.2411e-05 -3.084e-05 2.3951e-06 -2.8789e-05 -0.9598777384 0.2414259572
174890000.0 0.9747377106 -0.2171176526 4.428e-07 -9.5601e-06 7.7025e-06 5.5988e-06 -0.9588380119 0.2469744337
178637500.0 0.9739976696 -0.2218651242 -4.33185e-05 2.7807e-06 4.08563e-05 5.15882e-05 -0.9575089352 0.2527351576
182385000.0 0.9724952619 -0.2261548786 -1.37336e-05 -3.93225e-05 4.16435e-05 -1.47531e-05 -0.9563794333 0.257440169
186132500.0 0.9718425206 -0.2309546397 -2.7413e-05 1.42559e-05 4.40483e-05 7.11153e-05 -0.9553969344 0.2624151955
189880000.0 0.9702079151 -0.2353815194 2.35966e-05 2.32515e-05 -2.97384e-05 -8.5222e-06 -0.9535484127 0.2680293859
193627500.0 0.9690010131 -0.2396919962 -3.78275e-05 -2.95468e-05 5.33869e-05 3.44483e-05 -0.9527380061 0.2728895661
197375000.0 0.9675270736 -0.2442337845 6.597e-07 1.24924e-05 -1.89263e-05 8.18169e-05 -0.9512621426 0.2777820332
201122500.0 0.9662990285 -0.2489265457 9.3894e-06 8.03488e-05 -1.70523e-05 9.08225e-05 -0.9496992524 0.2830455431
204870000.0 0.9651132874 -0.2534013211 -4.83922e-05 7.16152e-05 4.8936e-05 4.52172e-05 -0.9479524144 0.2884384615
208617500.0 0.9631799514 -0.257851819 1.50913e-05 8.57658e-05 8.78576e-05 8.82108e-05 -0.9462250605 0.2923019512
212365000.0 0.962123395 -0.2624179116 5.49239e-05 4.67673e-05 5.0408e-05 7.30195e-05 -0.9452020926 0.297252604
216112500.0 0.9612297369 -0.266961292 7.28956e-05 -9.9852e-06 9.62479e-05 4.79084e-05 -0.9431695495 0.3028139214
219860000.0 0.9596480741 -0.2714326729 0.0001067909 -3.78739e-05 0.0001244785 7.38003e-05 -0.9412420788 0.3074671672
223607500.0 0.9583731801 -0.2760449657 4.73383e-05 -1.20383e-05 8.9675e-05 8.5973e-06 -0.9397319431 0.3119297097
227355000.0 0.9572039976 -0.2806981535 0.0001123737 1.43337e-05 6.25568e-05 -3.5948e-06 -0.9376512042 0.3174703911
231102500.0 0.9559340186 -0.2851542594 3.90414e-05 -9.8741e-06 6.58484e-05 8.4698e-06 -0.9359712324 0.3215980964
234850000.0 0.9543601721 -0.2895516892 5.05182e-05 -5.51779e-05 0.0001008838 -2.37418e-05 -0.9340500219 0.3268144752
238597500.0 0.9531509239 -0.2945959079 1.71584e-05 -5.17589e-05 4.52821e-05 -2.30524e-05 -0.9311680103 0.3317281587
242345000.0 0.9514105121 -0.2988071767 0.0001404561 -7.7164e-05 4.86874e-05 -5.15003e-05 -0.9291904407 0.3362273114
246092500.0 0.9504835519 -0.3032404638 2.44482e-05 -1.39493e-05 7.06769e-05 -0.0001162656 -0.9271717805 0.3408803578
249840000.0 0.948918791 -0.3077920048 8.06597e-05 -1.13606e-05 9.94524e-05 -1.83051e-05 -0.9245275995 0.3453991048
253587500.0 0.9475577487 -0.3122468269 9.02771e-05 -6.87321e-05 8.5193e-05 -3.96681e-05 -0.9228625253 0.3499906003
257335000.0 0.9461232708 -0.316499862 -4.13671e-05 -9.95673e-05 2.95062e-05 -6.69686e-05 -0.9207363518 0.3540703747
261082500.0 0.9450507794 -0.3213919264 1.27646e-05 -7.41892e-05 0.0001051291 -2.74872e-05 -0.9180483436 0.3597928563
264830000.0 0.9433124812 -0.3255271081 0.0001124448 -5.70062e-05 4.13467e-05 -4.95762e-05 -0.915863069 0.363693034
268577500.0 0.9420457138 -0.3296158668 8.99756e-05 -3.39869e-05 0.0001219949 -5.72206e-05 -0.9137244854 0.3685545742
272325000.0 0.9406649316 -0.3345206335 5.44863e-05 -7.58864e-05 5.46559e-05 -4.80373e-05 -0.9112535135 0.3728164547
276072500.0 0.9395899568 -0.3388718382 3.95999e-05 -0.0001188124 1.00664e-05 -5.28075e-05 -0.9088016552 0.3781420823
279820000.0 0.9378709905 -0.3428323511 0.0001015063 -8.8992e-05 2.5655e-05 -9.4689e-06 -0.9070118537 0.3823157363
283567500.0 0.9353635144 -0.34736449 4.83373e-05 -5.9554e-05 4.99726e-05 -8.56032e-05 -0.9046308188 0.3871172532
287315000.0 0.9341590919 -0.3516228188 9.03312e-05 -8.94299e-05 -1.34543e-05 -1.4553e-05 -0.902612477 0.3923226111
291062500.0 0.9327068057 -0.3562047546 4.70207e-05 -0.0001251726 4.82364e-05 -3.31811e-05 -0.9002524975 0.3969763737
294810000.0 0.9309627285 -0.3602875467 6.21675e-05 -0.0001136896 7.56684e-05 2.6523e-06 -0.8979557707 0.4019068214
298557500.0 0.92922885 -0.3648496847 4.3332e-05 -8.43966e-05 5.76279e-05 -7.2328e-05 -0.8957345285 0.4064904177
302305000.0 0.9272890176 -0.3686817354 4.9253e-06 -8.36107e-05 6.48818e-05 -4.94131e-05 -0.8935215216 0.4110745565
306052500.0 0.9255371264 -0.3732303015 9.01076e-05 -6.27541e-05 2.35988e-05 -4.84112e-05 -0.8913252752 0.4164165902
309800000.0 0.9240185182 -0.3779412485 4.94753e-05 -8.83317e-05 7.73966e-05 -9.09611e-05 -0.8894299664 0.4205530148
313547500.0 0.9221246112 -0.3818932182 4.4578e-06 -0.0001106462 -1.87832e-05 -0.0001008911 -0.8870428113 0.425188231
317295000.0 0.9205386876 -0.3864110808 5.30971e-05 -5.76672e-05 -5.9944e-06 -7.62381e-05 -0.8852175571 0.4301675767
321042500.0 0.9182715321 -0.3902920637 6.16348e-05 -3.44055e-05 7.96727e-05 -5.06014e-05 -0.8830291081 0.4352616078
324790000.0 0.9163395739 -0.394389402 -1.29983e-05 -8.44244e-05 7.61801e-05 -0.0001191916 -0.880902239 0.4397757392
328537500.0 0.9143174302 -0.399093606 2.11135e-05 -0.0001095986 4.6767e-06 -6.35051e-05 -0.8785724714 0.443940577
332285000.0 0.9122701993 -0.4031981328 -2.8843e-06 -5.87972e-05 7.443e-05 -6.31523e-05 -0.8766819825 0.4489977577
336032500.0 0.9101700724 -0.4070772449 6.66184e-05 -7.77002e-05 3.37404e-05 -0.0001053961 -0.8742561881 0.4541718464
339780000.0 0.9080752642 -0.4116386994 1.95119e-05 -4.02619e-05 1.0922e-06 -9.6604e-05 -0.8717115287 0.4582510446
343527500.0 0.9058915742 -0.4155294034 2.97487e-05 -2.98164e-05 1.21047e-05 -0.000114073 -0.8692229559 0.4631487936
347275000.0 0.9040374836 -0.4199190026 2.56902e-05 -0.0001128707 7.9873e-05 -8.61198e-05 -0.8671088419 0.4670672917
351022500.0 0.9018801442 -0.4243729787 2.25704e-05 -0.0001295506 2.91337e-05 -0.000204271 -0.86465167 0.4717842438
354770000.0 0.8995260513 -0.4285859194 -9.3949e-06 -9.69887e-05 -4.22792e-05 -0.0001020187 -0.8622350723 0.4757595409
358517500.0 0.8976801882 -0.4330711023 -4.77048e-05 -0.0001040713 -6.70799e-05 -0.0001106102 -0.8597198438 0.4804988223
362265000.0 0.8956452735 -0.4370522207 6.5445e-06 -0.0001066809 -4.70008e-05 -9.02515e-05 -0.8572472478 0.4850247096
366012500.0 0.8932300115 -0.4415532095 -6.84056e-05 -0.000126203 -4.09348e-05 -8.0886e-06 -0.8547207439 0.4887702225
369760000.0 0.8914542682 -0.445588967 -6.64059e-05 -5.98598e-05 -8.35148e-05 -8.0825e-05 -0.8522676953 0.4930507875
373507500.0 0.8891734026 -0.4499281796 -3.988e-07 -2.94278e-05 -6.3871e-06 -2.73095e-05 -0.8492731469 0.4977447388
377255000.0 0.8870157863 -0.4539923339 -3.79705e-05 -6.00258e-05 -6.85678e-05 -5.33257e-05 -0.8468883277 0.5015920405
381002500.0 0.8847455381 -0.4584831449 -1.51759e-05 1.81298e-05 -2.4565e-06 -4.73056e-05 -0.8436431506 0.5058085526
384750000.0 0.8825599412 -0.4625444284 -3.73475e-05 -3.4192e-05 4.1955e-06 -2.35447e-05 -0.8407117468 0.5102287099
388497500.0 0.8806795109 -0.4668758303 -6.00725e-05 1.13055e-05 -4.22731e-05 -3.2078e-06 -0.837715178 0.514221876
392245000.0 0.8782799017 -0.4713920083 -7.48441e-05 -1.801e-05 -4.38789e-05 -3.1855e-06 -0.8349310528 0.5179782352
395992500.0 0.8763684222 -0.4753115119 -1.10081e-05 1.5515e-06 -1.54177e-05 -2.4166e-06 -0.8318455829 0.5223192667
399740000.0 0.8738188255 -0.4796891758 -5.17657e-05 -1.8618e-06 -7.37326e-05 3.48744e-05 -0.8287750336 0.5263034313
403487500.0 0.8715590491 -0.4836635521 1.34467e-05 -2.39591e-05 -3.90357e-05 8.86103e-05 -0.8261759356 0.5305069634
407235000.0 0.8693592422 -0.4879690926 -3.9384e-05 3.45152e-05 1.51743e-05 -5.4362e-06 -0.8226188242 0.5344591322
410982500.0 0.8670558731 -0.4920144164 -4.9831e-05 5.93946e-05 -2.50055e-05 3.82099e-05 -0.8194198914 0.5388641921
414730000.0 0.8652637672 -0.4962221096 -9.67177e-05 9.35599e-05 -5.8746e-06 0.0001096573 -0.8164591041 0.5429910817
418477500.0 0.8626889775 -0.5003500769 -2.04894e-05 7.08105e-05 -5.65192e-05 7.33868e-05 -0.813563702 0.5469823157
422225000.0 0.8605328665 -0.5044119948 -3.35462e-05 0.0001194042 -9.37e-07 0.0001096029 -0.8101810363 0.5511813703
425972500.0 0.8583105676 -0.5081110474 -2.20715e-05 0.0001091106 8.67945e-05 0.0001643613 -0.8066391083 0.5555248545
429720000.0 0.8556899166 -0.5122922599 6.95546e-05 0.000156261 4.25065e-05 0.0001439679 -0.8035328171 0.5592645003
433467500.0 0.8532103155 -0.5158989045 7.96776e-05 0.0001210345 9.35437e-05 0.0002980119 -0.8001084555 0.5630725252
437215000.0 0.8507924899 -0.5203331606 0.0001833526 0.0002651825 0.0001496425 0.0002169677 -0.7966982831 0.5670296343
440962500.0 0.8483152495 -0.5240899008 0.0003667374 0.0001524996 0.0003159929 0.0001939724 -0.7937128171 0.5707690212
444710000.0 0.8457031768 -0.5282270582 0.0003319465 6.80388e-05 0.0003176017 9.1555e-05 -0.7909977343 0.5745398448
448457500.0 0.8431522038 -0.5317544941 0.0004103853 3.47404e-05 0.0003780627 2.98685e-05 -0.7883156463 0.5785071278
452205000.0 0.8409436922 -0.5355776495 0.0003417902 -1.20904e-05 0.0003545091 6.0016e-06 -0.7858794998 0.5826938778
455952500.0 0.8384849287 -0.5398747344 0.0003177762 -0.0001159913 0.000316628 -7.97947e-05 -0.7829343205 0.587066252
459700000.0 0.8360958536 -0.5434572961 0.0003053516 -0.0001761544 0.0003454962 -0.0001396764 -0.7800950153 0.5915676493
463447500.0 0.8332030605 -0.547093543 0.0002818799 -0.0002133077 0.0002722759 -0.0001683027 -0.7768595267 0.5963049841
467195000.0 0.8306029302 -0.5515383203 0.0002737166 -0.000244001 0.0002724637 -0.0002015982 -0.773869655 0.6005911297
470942500.0 0.8279539676 -0.5550666268 0.0002124742 -0.0002400955 0.0002219807 -0.000251977 -0.7706725144 0.6046979337
474690000.0 0.8248390084 -0.558879479 0.0001588164 -0.0002522531 0.0001691057 -0.0002757909 -0.7676002856 0.6084396959
478437500.0 0.8223093963 -0.5625847891 0.0001623899 -0.0002346801 0.0002268451 -0.0002010671 -0.7646283315 0.6122823206
482185000.0 0.8195257519 -0.5661881938 0.0001950621 -0.0002950724 0.0001959927 -0.0002433228 -0.7612515552 0.6170439307
485932500.0 0.8166991145 -0.5699512447 0.0001375617 -0.0002787544 9.12522e-05 -0.0002107974 -0.7578990907 0.6208888129
489680000.0 0.8144071953 -0.5737739573 0.0001311444 -0.0002268663 0.0001286993 -0.0002446336 -0.7552443703 0.6246070574
493427500.0 0.8109070778 -0.5774485701 8.49554e-05 -0.0002683348 0.0001273995 -0.0002277149 -0.7515431797 0.6284994925
497175000.0 0.8081418905 -0.581109774 1.63597e-05 -0.000240103 8.77715e-05 -0.0002218456 -0.7483323347 0.6320606388
500922500.0 0.805388326 -0.5848304017 4.11381e-05 -0.0002766831 8.85202e-05 -0.0002163983 -0.7451694442 0.6365022363
504670000.0 0.8028629488 -0.5886709223 1.12921e-05 -0.0002497255 -2.3645e-05 -0.0002331258 -0.7419712702 0.6396860044
508417500.0 0.7996008188 -0.5927118532 1.48413e-05 -0.0002421658 7.34472e-05 -0.0002113311 -0.7382029323 0.6437244978
512165000.0 0.7967933601 -0.5964721115 4.62826e-05 -0.000188081 9.00315e-05 -0.000251637 -0.7348420133 0.6478866534
515912500.0 0.7938183388 -0.6002118639 -2.26368e-05 -0.0001792609 2.63337e-05 -0.0002200923 -0.7315686828 0.6510266541
519660000.0 0.7908755997 -0.6037750403 -6.1064e-06 -0.0001878776 2.36236e-05 -0.0001944788 -0.728002008 0.6545781756
523407500.0 0.7879830299 -0.6078563984 -1.7227e-06 -0.000214708 3.58292e-05 -0.0002403764 -0.7243418073 0.6581528816
527155000.0 0.7850620845 -0.6113294406 1.36752e-05 -0.0002887137 8.2195e-06 -0.0001756772 -0.7208086624 0.661383073
530902500.0 0.7823814261 -0.6152746049 3.84889e-05 -0.0001527884 -5.4179e-06 -0.000205197 -0.717056397 0.6653669534
534650000.0 0.7793850137 -0.6186589314 -1.82401e-05 -0.0001974271 -2.01029e-05 -0.0002164438 -0.7136070395 0.6686532737
538397500.0 0.7766241926 -0.6228229349 -6.5673e-05 -0.0001352307 -1.163e-06 -0.0001506027 -0.7100477949 0.6721291369
542145000.0 0.7732090438 -0.6264737927 -4.21178e-05 -0.0001741256 -9.17532e-05 -0.0001658553 -0.7063359475 0.6754626222
545892500.0 0.7704086882 -0.6301589283 -5.68538e-05 -0.0001133092 -0.0001195308 -0.0001862296 -0.7026241026 0.6786539888
549640000.0 0.7673432751 -0.6340009643 -8.54994e-05 -0.0001988483 -5.64451e-05 -0.0001670705 -0.6988060875 0.6816418939
553387500.0 0.7644640749 -0.6374648415 -7.85777e-05 -0.0001440958 -3.366e-05 -0.0001360803 -0.6952278973 0.685111564
557135000.0 0.7617467135 -0.6412749031 1.27915e-05 -0.000143137 -8.56941e-05 -8.15834e-05 -0.6914955833 0.6883867947
560882500.0 0.7583042391 -0.6448262566 -0.0001477639 -0.0001284671 -9.20994e-05 -6.9721e-05 -0.6876855026 0.6918903078
564630000.0 0.7555629083 -0.64861572 -6.44991e-05 -6.91678e-05 6.1003e-06 -0.0001204147 -0.6837993915 0.694979708
568377500.0 0.752663305 -0.6521249064 -9.69071e-05 -5.92373e-05 -6.787e-05 -7.28113e-05 -0.6802861346 0.6985903367
572125000.0 0.74939255 -0.6557243562 -0.0001094232 -0.0001122237 -9.75479e-05 -8.94716e-05 -0.6765125149 0.7019057526
575872500.0 0.7459721969 -0.6590700758 -9.12529e-05 3.2684e-06 -3.23421e-05 -5.68339e-05 -0.672344319 0.7051855593
579620000.0 0.7432146964 -0.6629677354 -7.55678e-05 -0.0001146778 -2.5456e-05 -4.38746e-05 -0.6688961216 0.7085713372
583367500.0 0.7402809575 -0.6661656734 -2.15079e-05 -5.10221e-05 -6.93942e-05 -0.0001186032 -0.6653253457 0.7122564232
587115000.0 0.7372416366 -0.6699576663 -1.66235e-05 -5.45935e-05 -6.77009e-05 -8.3726e-05 -0.6616731148 0.7158974195
590862500.0 0.7336490287 -0.6732365397 -1.81653e-05 2.01319e-05 -1.66945e-05 -7.01135e-05 -0.6578325201 0.7188483469
594610000.0 0.7306572477 -0.6763924934 -7.12751e-05 -3.83358e-05 -3.86584e-05 -6.48598e-05 -0.6539598961 0.7222627271
598357500.0 0.7276035921 -0.6799504535 -0.0001021361 -4.17987e-05 -0.0001232048 -6.6453e-05 -0.6498136008 0.7255896475
602105000.0 0.7244236081 -0.6830089358 -1.1865e-05 -6.33253e-05 2.196e-06 1.64504e-05 -0.6456823374 0.7290193699
605852500.0 0.7210133958 -0.6862557558 -6.12565e-05 5.0349e-06 1.5652e-05 -9.4429e-06 -0.6422105999 0.7324194142
609600000.0 0.717792737 -0.689463213 -5.9407e-06 -4.913e-06 7.7335e-06 -7.38955e-05 -0.638388639 0.7351985899
613347500.0 0.7146078682 -0.6933897373 -2.48754e-05 9.9328e-06 4.70775e-05 -1.93848e-05 -0.6347729574 0.7387901589
617095000.0 0.711068638 -0.6961388039 -2.95317e-05 1.01042e-05 -8.6384e-06 2.33901e-05 -0.6311795771 0.7419360071
620842500.0 0.7081768221 -0.6991509394 7.71399e-05 2.64921e-05 7.7329e-06 -7.5025e-06 -0.6274563155 0.7449227464
624590000.0 0.7043835035 -0.7025269228 -2.99499e-05 3.5766e-05 3.20145e-05 2.79194e-05 -0.623369185 0.7484072799
628337500.0 0.7011150189 -0.7057834088 7.36557e-05 2.98169e-05 0.0001101436 6.36272e-05 -0.6201216669 0.7512747464
632085000.0 0.6979596059 -0.7087871967 3.67392e-05 8.7954e-05 7.79607e-05 3.29761e-05 -0.617027137 0.7545739736
635832500.0 0.6941740671 -0.7119981453 2.42802e-05 1.7082e-06 8.83147e-05 -5.7207e-06 -0.6129501917 0.7575179332
639580000.0 0.6907090794 -0.7150230569 8.14062e-05 -2.0438e-06 0.0001386872 -5.17711e-05 -0.6095125657 0.7606259534
643327500.0 0.6874019827 -0.718388629 8.96583e-05 2.98066e-05 0.0001655071 -2.99763e-05 -0.6053143998 0.7639710319
647075000.0 0.684289265 -0.7214798174 9.42055e-05 -4.38631e-05 5.60266e-05 8.946e-06 -0.6013929376 0.7672386655
