!	Fieldfox Controller
!	Chapman University - Class ENG398
!	Introduction to RF - DMG (2024)
! 
!Created with skrf (http://scikit-rf.org).
# Hz S RI R 50.0 
!freq ReS11 ImS11 ReS21 ImS21 ReS12 ImS12 ReS22 ImS22
10000000.0 0.9989352889 -0.035565155 -5.22134e-05 -9.487e-07 -3.31156e-05 1.1109e-05 0.999125507 -0.03490054
11248750.0 0.9991806425 -0.0403293897 1.93525e-05 -6.49068e-05 3.9884e-06 4.339e-07 0.9989098225 -0.039435613
12497500.0 0.9991530027 -0.0450462774 1.3086e-05 -2.33673e-05 -1.96095e-05 -4.50621e-05 0.9983611371 -0.0438360617
13746250.0 0.9990051253 -0.0489622964 5.5321e-05 -5.79437e-05 -1.76811e-05 -6.19014e-05 0.9982272301 -0.0478442561
14995000.0 0.998482788 -0.0533614929 -2.9831e-05 -1.39313e-05 1.33843e-05 -5.75159e-05 0.9981053507 -0.0523566102
16243750.0 0.9983392226 -0.0578548116 -5.22975e-05 4.7478e-06 8.1855e-06 -5.72891e-05 0.9980887401 -0.0567505742
17492500.0 0.9977975641 -0.0622504779 3.43055e-05 1.72905e-05 1.14433e-05 -1.85042e-05 0.9976039636 -0.0609336741
18741250.0 0.9975470338 -0.0672720614 -1.50046e-05 -9.5965e-05 -2.4832e-06 -2.19608e-05 0.9973528197 -0.0654063911
19990000.0 0.9973584128 -0.0711413513 -3.8147e-05 -0.0001120257 -2.58822e-05 -5.14134e-05 0.9968239367 -0.0700358565
21238750.0 0.9970300217 -0.0756167283 3.13045e-05 -8.40229e-05 -6.56196e-05 -0.0001005533 0.9967883732 -0.074047109
22487500.0 0.9969434137 -0.0802252683 1.55393e-05 -2.27962e-05 -6.3406e-06 -0.0001060584 0.996319672 -0.0783301182
23736250.0 0.9962599081 -0.0843641482 2.7969e-05 -0.0001089681 -4.10566e-05 -9.49733e-05 0.9958073229 -0.0825495884
24985000.0 0.995868625 -0.0890467829 -4.88355e-05 -9.38419e-05 -2.657e-05 -0.0001165008 0.9957106606 -0.0871551187
26233750.0 0.9952460159 -0.0933760704 -4.80327e-05 -0.0001809986 3.84169e-05 -0.0001231518 0.9950076241 -0.0915376584
27482500.0 0.9948013011 -0.09807302 -3.73359e-05 -0.0001567403 -4.59211e-05 -0.0001284353 0.9944697113 -0.0959035124
28731250.0 0.9942699436 -0.1022058675 -3.81022e-05 -0.0001785246 -6.94209e-05 -0.0001633516 0.9942455067 -0.1002833616
29980000.0 0.9935581255 -0.1067218958 -1.5145e-05 -0.0001790586 -1.2603e-05 -0.0002340978 0.9934102232 -0.1045429199
31228750.0 0.9932857357 -0.1111688656 -6.41264e-05 -0.0002958269 1.22162e-05 -0.0002515909 0.9927618645 -0.1089039786
32477500.0 0.9929921831 -0.1155770306 3.15431e-05 -0.0002350869 -5.04673e-05 -0.0001916738 0.9925574345 -0.1131325757
33726250.0 0.9922545258 -0.1197613899 2.4324e-06 -0.0002836839 -5.7715e-06 -0.0002756183 0.9921893824 -0.1173763798
34975000.0 0.991616616 -0.1241974608 -4.47485e-05 -0.000311919 -4.10598e-05 -0.0003295407 0.9914787326 -0.1222744961
36223750.0 0.9911058385 -0.1288942012 -6.36058e-05 -0.0003846341 -6.59952e-05 -0.0003691535 0.9910003689 -0.1266015851
37472500.0 0.9903190599 -0.1332447703 -0.0001062348 -0.0003769573 -6.62766e-05 -0.0003638933 0.9905538356 -0.1304512668
38721250.0 0.9897869809 -0.1378856737 -7.93356e-05 -0.0004603386 -6.17469e-05 -0.0004256915 0.9895205273 -0.1352511655
39970000.0 0.9891897706 -0.1423556762 -8.46854e-05 -0.0004966518 -0.0001001304 -0.0004837014 0.9889541152 -0.1398235452
41218750.0 0.9883629332 -0.146878738 -0.0001599172 -0.0005062592 -0.0001065445 -0.0005082307 0.9883924688 -0.1437977402
42467500.0 0.987775603 -0.1511013052 -0.0001186069 -0.0005276564 -7.43823e-05 -0.000496971 0.9875303343 -0.1478634469
43716250.0 0.9870325936 -0.1554872348 -8.70752e-05 -0.0005947674 -9.95967e-05 -0.0005679383 0.9871119004 -0.152332664
44965000.0 0.9863014424 -0.1599682836 -0.0002155367 -0.0006569109 -0.0001303777 -0.0005896069 0.9862007271 -0.1567527678
46213750.0 0.9858542017 -0.1645457065 -0.0001393082 -0.0007469349 -0.0001404959 -0.000728098 0.9856083387 -0.1611753197
47462500.0 0.9846895452 -0.1684217671 -0.0001661601 -0.000768364 -0.0001109752 -0.0007959634 0.9846103642 -0.1651300944
48711250.0 0.9840180093 -0.1732467454 -0.0002040505 -0.0008095731 -0.0001960175 -0.0008113536 0.9838197908 -0.169666679
49960000.0 0.983340776 -0.1775403525 -0.0002311966 -0.0009535538 -0.0002337467 -0.0009057013 0.9829133658 -0.1743074398
51208750.0 0.9821760726 -0.1822073707 -0.0002604405 -0.000935435 -0.0002352947 -0.0010024361 0.9825179402 -0.1784826847
52457500.0 0.9815065012 -0.1867435713 -0.0002278993 -0.0010523518 -0.0002684712 -0.0009717536 0.9815290819 -0.182593243
53706250.0 0.980839214 -0.1910017066 -0.0003341103 -0.001112567 -0.0002685011 -0.0011300072 0.9807228572 -0.1867672369
54955000.0 0.9798054241 -0.1955971207 -0.0003239669 -0.0012166633 -0.0003250496 -0.0012668336 0.979886415 -0.1915232416
56203750.0 0.9785850048 -0.1996730595 -0.000328082 -0.0013146663 -0.00028068 -0.0012809599 0.9789550354 -0.1957678793
57452500.0 0.977704349 -0.2043001382 -0.0002977259 -0.001404307 -0.0003759197 -0.0013625784 0.9779951599 -0.2002712931
58701250.0 0.9770900419 -0.2088133611 -0.0003510436 -0.0014910641 -0.000365654 -0.0014816978 0.9771314652 -0.2044477091
59950000.0 0.9759205334 -0.2133217363 -0.0004111388 -0.0015934676 -0.0004359299 -0.0015169049 0.9763409108 -0.2087551125
61198750.0 0.9749978608 -0.2176358981 -0.0004971121 -0.0016088206 -0.0004324567 -0.0016649149 0.9751457459 -0.2131230191
62447500.0 0.9740084924 -0.222064302 -0.0004778034 -0.0018034394 -0.000479004 -0.0017280968 0.9741962192 -0.2177168246
63696250.0 0.972819344 -0.2263600837 -0.000553155 -0.0018849484 -0.0005530723 -0.001835038 0.9732538351 -0.2220098687
64945000.0 0.9718273147 -0.2308718376 -0.0005865696 -0.0019341562 -0.0005312803 -0.0019499696 0.9720462604 -0.2261057854
66193750.0 0.9707433011 -0.2353641251 -0.0006411232 -0.0020902366 -0.0005626623 -0.0020654708 0.9711573305 -0.2306892164
67442500.0 0.9697687951 -0.2398823205 -0.0006462188 -0.0022470904 -0.0006042908 -0.0021322872 0.9700942825 -0.2348848536
68691250.0 0.9686060641 -0.2442257619 -0.000687823 -0.0023193063 -0.0006806727 -0.0023942316 0.968994643 -0.2393109438
69940000.0 0.9673359054 -0.2485634494 -0.0007233463 -0.0024771587 -0.0006968167 -0.0024400758 0.968256195 -0.2435426385
71188750.0 0.9664212078 -0.252914776 -0.0007823791 -0.0026210627 -0.000766829 -0.002586912 0.9667823156 -0.2480236856
72437500.0 0.9652419736 -0.2576132476 -0.0008046109 -0.0027416029 -0.0008149843 -0.0026507192 0.9656648099 -0.2523074486
73686250.0 0.9641294489 -0.2616308486 -0.0009421012 -0.0029200541 -0.0008845492 -0.0028985728 0.9646740878 -0.2564668379
74935000.0 0.9627516383 -0.2663434922 -0.0010173188 -0.0030401408 -0.000938502 -0.0030387241 0.9634811668 -0.2608946897
76183750.0 0.9617546103 -0.2705074953 -0.0010343415 -0.0032179344 -0.0010045424 -0.0031508535 0.9619217357 -0.2655002022
77432500.0 0.9606043728 -0.2750923252 -0.0010991513 -0.0033947069 -0.0010930553 -0.003286827 0.9609049172 -0.2694171131
78681250.0 0.9590271637 -0.2797116671 -0.0011796752 -0.0035469022 -0.0011248872 -0.0035394203 0.9596236861 -0.2741186061
79930000.0 0.9578528455 -0.2841452722 -0.0012342079 -0.0036497896 -0.0012370834 -0.0036650462 0.9581972298 -0.2783618487
81178750.0 0.9567139083 -0.2882343762 -0.0013301465 -0.0038598206 -0.0013176797 -0.0038160632 0.9568299926 -0.2827640063
82427500.0 0.9549718409 -0.2924457029 -0.0014264627 -0.0040927968 -0.0014329253 -0.0040685084 0.9555524755 -0.2869166674
83676250.0 0.9539797111 -0.2969609476 -0.0014942694 -0.0042174322 -0.001480983 -0.0042021208 0.95440917 -0.2910846002
84925000.0 0.9525175203 -0.3016618584 -0.0015532824 -0.0043789364 -0.0015748904 -0.0043666508 0.9532825619 -0.2954466222
86173750.0 0.9509995719 -0.3062230553 -0.0016969963 -0.0046498915 -0.0016777149 -0.004534898 0.9516062734 -0.2998628986
87422500.0 0.9498474141 -0.3102614525 -0.00180472 -0.004880022 -0.0017562285 -0.0047857379 0.9502734297 -0.304389782
88671250.0 0.9480270677 -0.3146359952 -0.0018561457 -0.0050336684 -0.0018690502 -0.005070084 0.9491273851 -0.3086523157
89920000.0 0.9466079048 -0.3194321271 -0.0019659418 -0.0052408252 -0.0019589469 -0.0052273217 0.9479778389 -0.3129015937
91168750.0 0.9449685132 -0.3236286138 -0.0020864206 -0.0054490381 -0.0020144947 -0.0054114183 0.9465202104 -0.3176910748
92417500.0 0.9433252471 -0.327879856 -0.0022961137 -0.005758911 -0.0021962174 -0.005622029 0.9446945536 -0.321743099
93666250.0 0.9418172481 -0.3323550682 -0.0022880424 -0.0059310127 -0.002328045 -0.0059456745 0.9430343323 -0.3258989319
94915000.0 0.9401363877 -0.3371032281 -0.0024485906 -0.0061860624 -0.0024028393 -0.006064484 0.9418537836 -0.3305425437
96163750.0 0.9388112781 -0.3407771538 -0.0026158683 -0.0064133083 -0.0025077906 -0.0063420598 0.940003628 -0.3345576751
97412500.0 0.9373420925 -0.345297021 -0.0027719121 -0.0067090901 -0.0027413449 -0.0066129419 0.938698166 -0.3391555685
98661250.0 0.9352633325 -0.3500045969 -0.0029511744 -0.0069139396 -0.0028740758 -0.0068503994 0.9371798811 -0.3434439287
99910000.0 0.933638052 -0.3547145749 -0.0030895803 -0.0071255855 -0.0030487095 -0.0071248549 0.9355051736 -0.3481512433
101158750.0 0.9320331547 -0.358549581 -0.0033044024 -0.007399563 -0.0031930879 -0.0073658564 0.934029459 -0.3522045331
102407500.0 0.9305743619 -0.3631427433 -0.0033734211 -0.0075500085 -0.0033256539 -0.0075675374 0.9322576434 -0.3561767396
103656250.0 0.9287860693 -0.367352708 -0.0035245142 -0.0078960932 -0.0034354228 -0.0078253224 0.9302850828 -0.3606484521
104905000.0 0.9268758915 -0.3717319914 -0.0036274561 -0.0081432134 -0.0035971013 -0.0081593195 0.9287297252 -0.3648185298
106153750.0 0.9251368157 -0.376365424 -0.0038505418 -0.0085086915 -0.003790394 -0.0084878667 0.9272761408 -0.3694254902
107402500.0 0.9232450435 -0.3806841934 -0.0040567794 -0.0088465617 -0.0039097069 -0.0087941063 0.9252036656 -0.3737056489
108651250.0 0.9217530434 -0.3849929635 -0.0041844732 -0.0091481534 -0.0041986466 -0.0091672053 0.9233756215 -0.3780692176
109900000.0 0.9194703372 -0.3896634582 -0.0044490529 -0.0095066995 -0.0043135318 -0.0094127212 0.9219897866 -0.3827947136
111148750.0 0.9176949603 -0.3936432518 -0.0046276897 -0.009804183 -0.0046098024 -0.0097902502 0.9200873069 -0.3864345206
112397500.0 0.915677511 -0.3982797496 -0.0047433695 -0.0102612484 -0.004754488 -0.0100875778 0.9181578937 -0.3909340045
113646250.0 0.9135830077 -0.4025562117 -0.0050407773 -0.0105050771 -0.0049470836 -0.0104045999 0.9165202846 -0.3955397847
114895000.0 0.9117308311 -0.4070618585 -0.0053176311 -0.010865165 -0.0051891314 -0.0107762421 0.9139901493 -0.3995884988
116143750.0 0.9098149743 -0.4114936504 -0.0055501164 -0.0112006818 -0.0054977972 -0.0111414703 0.9121459889 -0.4041816992
117392500.0 0.907757695 -0.4156230924 -0.0057126218 -0.0116163652 -0.005708397 -0.0116005906 0.9105969489 -0.4083162159
118641250.0 0.9060171317 -0.4201660759 -0.0060786161 -0.0118885027 -0.0060167502 -0.0119432608 0.9085165301 -0.4122842563
119890000.0 0.9038244963 -0.4245696787 -0.006250974 -0.0123202451 -0.0062321942 -0.0123024202 0.9064375704 -0.4167439719
121138750.0 0.9017921307 -0.4290372801 -0.0065284747 -0.0127840525 -0.0065177852 -0.012720417 0.9048448754 -0.4211965151
122387500.0 0.899765018 -0.4334362863 -0.0068500865 -0.0130850172 -0.0068244356 -0.0130833401 0.9025128674 -0.4254075984
123636250.0 0.8975007886 -0.4377372684 -0.0071227871 -0.0135761522 -0.0070723608 -0.0134793095 0.9003945353 -0.4295731926
124885000.0 0.8950834019 -0.4415160501 -0.0073841541 -0.0139548807 -0.00740987 -0.0138776275 0.8983970208 -0.4340396413
126133750.0 0.8929111077 -0.4462577136 -0.0077421753 -0.0144100031 -0.007740879 -0.0142920763 0.8963482931 -0.438490124
127382500.0 0.8909192606 -0.4506381367 -0.0080465863 -0.0148557121 -0.0079677697 -0.0147636318 0.8943616537 -0.4425920124
128631250.0 0.8885257962 -0.4548426132 -0.008345992 -0.0152794639 -0.0082885717 -0.0151785111 0.8920501202 -0.4469246954
129880000.0 0.8864620598 -0.4592051779 -0.0087449772 -0.0157425213 -0.0087225452 -0.0157134279 0.8899560737 -0.4513459897
131128750.0 0.8840789798 -0.4638316611 -0.0090976498 -0.0161477458 -0.0090194807 -0.0161388329 0.8876975725 -0.4556468966
132377500.0 0.8816946042 -0.4680402279 -0.0094805293 -0.0166369582 -0.0093730198 -0.0165530836 0.8850999688 -0.4597126631
133626250.0 0.879368278 -0.4720618849 -0.0098545982 -0.0170938393 -0.0097437514 -0.0170385336 0.8834343135 -0.4639803027
134875000.0 0.8771530304 -0.4766911633 -0.0101701868 -0.0176121613 -0.0102093062 -0.0175524015 0.8811312472 -0.4685262866
136123750.0 0.8746262461 -0.4808598498 -0.0106643072 -0.0181009109 -0.0105572045 -0.0180468979 0.879023104 -0.4722788697
137372500.0 0.8722704793 -0.48526088 -0.0111088424 -0.018517413 -0.0109684318 -0.0184784026 0.8765058333 -0.4768993349
138621250.0 0.8696469462 -0.4897317875 -0.0114927826 -0.0191122497 -0.0114153978 -0.0189978561 0.8739066512 -0.4804454041
139870000.0 0.8671129614 -0.493921514 -0.0119470031 -0.0196399761 -0.0118431203 -0.0195368302 0.8716041127 -0.4850648512
141118750.0 0.8644581239 -0.4982526737 -0.0124121983 -0.0201511904 -0.0122875533 -0.0200915994 0.8692735085 -0.4897520652
142367500.0 0.8617653687 -0.5025561965 -0.0128730177 -0.020612675 -0.012762923 -0.0205482184 0.8664996018 -0.4935739839
143616250.0 0.8593900991 -0.5069558241 -0.01338916 -0.0211970147 -0.0133178916 -0.0211130654 0.8642819643 -0.4981355289
144865000.0 0.8567596377 -0.5112877946 -0.0138569933 -0.0217786943 -0.0136966786 -0.0216471081 0.8616487517 -0.5021542549
146113750.0 0.8542187961 -0.5159369292 -0.0144227714 -0.0223883884 -0.0142680778 -0.0222095935 0.8588274209 -0.5063881706
147362500.0 0.8510722094 -0.5202009612 -0.0149004857 -0.0228912697 -0.0148045958 -0.0227497251 0.8561245489 -0.5107944143
148611250.0 0.8486991778 -0.5244414629 -0.0154332379 -0.0234784326 -0.015306278 -0.0233351477 0.853772979 -0.5148931197
149860000.0 0.8456201988 -0.5288640621 -0.015997167 -0.0240865002 -0.0159180191 -0.0239647999 0.8512785784 -0.5192851468
151108750.0 0.8430055783 -0.5331718851 -0.016627805 -0.0246018487 -0.0164590998 -0.0245562667 0.8483592583 -0.5237683059
152357500.0 0.8397732493 -0.537462486 -0.0172580784 -0.0252946434 -0.0170962459 -0.0252047152 0.8456389464 -0.5278679616
153606250.0 0.8371691171 -0.5416527937 -0.0178376083 -0.0259194951 -0.01765502 -0.0258050953 0.8428227369 -0.5320578211
154855000.0 0.8345407948 -0.5464008457 -0.0185135898 -0.0265478737 -0.0182794053 -0.0263827525 0.8404821094 -0.5362410754
156103750.0 0.8317265956 -0.5500535103 -0.0191675928 -0.0271494497 -0.0189489389 -0.0270996248 0.8373407668 -0.5407532175
157352500.0 0.8287444822 -0.554867166 -0.0198671578 -0.0277909264 -0.0196385733 -0.0276559634 0.8343089656 -0.5449297094
158601250.0 0.8253152432 -0.5589167827 -0.0205154429 -0.0284682426 -0.0203480161 -0.0283090062 0.8316471551 -0.5497168987
159850000.0 0.8219871082 -0.5633751872 -0.0212364414 -0.0291694415 -0.0210348683 -0.0289858027 0.8285554663 -0.5533388587
161098750.0 0.8191847524 -0.5679195327 -0.0219642023 -0.0297712762 -0.0217732775 -0.0296684145 0.8254781219 -0.5578260897
162347500.0 0.8158070481 -0.5723385665 -0.0228363641 -0.0304814954 -0.0224976238 -0.0302648545 0.8229193603 -0.561906517
163596250.0 0.8127885754 -0.5770143418 -0.0235259513 -0.0311836041 -0.0232433666 -0.0310099342 0.8198746688 -0.5662469939
164845000.0 0.8096063438 -0.5809618743 -0.0243113391 -0.031874813 -0.0240217135 -0.0317533383 0.8167575216 -0.5707984369
166093750.0 0.8065761584 -0.5853660452 -0.0251237157 -0.0326051368 -0.0248619375 -0.0324448545 0.8134457909 -0.5751719303
167342500.0 0.8030301747 -0.5901760007 -0.0259807457 -0.0332960921 -0.0257465954 -0.0331048952 0.8105013178 -0.5790812361
168591250.0 0.8001890609 -0.5938295663 -0.0268489097 -0.0340433496 -0.0265620175 -0.0338624269 0.8072152534 -0.583223891
169840000.0 0.7962670585 -0.5985276068 -0.0277277174 -0.0347236143 -0.0274689687 -0.0346172485 0.8040615539 -0.5873237296
171088750.0 0.792934656 -0.6028568608 -0.0286915325 -0.0355727651 -0.0283913345 -0.0353674534 0.8003083571 -0.591451571
172337500.0 0.7891657566 -0.6067587981 -0.0296153942 -0.0362899974 -0.0292704039 -0.0360984607 0.7974966001 -0.5956579195
173586250.0 0.7858732478 -0.6115158629 -0.0306191331 -0.0370150484 -0.0302646984 -0.0369026735 0.7939657929 -0.6000043942
174835000.0 0.7824028734 -0.6157881153 -0.0316009251 -0.0377811965 -0.0312314527 -0.0376599213 0.7907443766 -0.6039972086
176083750.0 0.7788296057 -0.6201606867 -0.0326659619 -0.0386131741 -0.0323406324 -0.0384568678 0.7874418426 -0.6085950289
177332500.0 0.7751161291 -0.624635227 -0.0336545881 -0.0393870851 -0.0333366248 -0.0392448458 0.7835786438 -0.6127893266
178581250.0 0.7712893304 -0.6286901564 -0.034752198 -0.040212672 -0.0343731281 -0.0399819942 0.7800341501 -0.6171676438
179830000.0 0.7676349258 -0.633034362 -0.0358466853 -0.040996269 -0.0355006633 -0.0408401345 0.776426387 -0.6212970303
181078750.0 0.7638606047 -0.6371557267 -0.0370599478 -0.0418225845 -0.0366262243 -0.0416536988 0.7728747936 -0.625411499
182327500.0 0.7599624276 -0.6415489956 -0.0381588991 -0.0426430862 -0.0377969867 -0.0425774325 0.7694080578 -0.6291536712
183576250.0 0.7561307806 -0.6459390738 -0.0393797482 -0.0434920036 -0.0390007253 -0.0433864256 0.765804017 -0.6340350945
184825000.0 0.7522160032 -0.6505769261 -0.0406402827 -0.0443891194 -0.0402549755 -0.0442153127 0.762065142 -0.6381458016
186073750.0 0.7479342602 -0.6544649393 -0.0419034385 -0.0451839943 -0.0415176391 -0.0450352923 0.7583144416 -0.6421442786
187322500.0 0.7441093505 -0.6589494567 -0.0432077007 -0.0460571124 -0.0427755112 -0.0458325853 0.7542059637 -0.6463006323
188571250.0 0.7403361697 -0.6633790905 -0.0446408183 -0.0469447934 -0.0440962889 -0.0467777689 0.750306205 -0.6508988926
189820000.0 0.7358920483 -0.6675521116 -0.0459492168 -0.0478307809 -0.0454673298 -0.0476657223 0.7464991906 -0.6550088023
191068750.0 0.7318130162 -0.6719073707 -0.0473618292 -0.048710948 -0.0468147731 -0.0484634615 0.7426194954 -0.6592035414
192317500.0 0.7275536868 -0.6758304532 -0.0488120754 -0.049550948 -0.0483176772 -0.0494208879 0.7385572798 -0.6633926755
193566250.0 0.7233221626 -0.6802823504 -0.0503153657 -0.0504284368 -0.0498065139 -0.0502993904 0.7343474107 -0.66768291
194815000.0 0.7185460776 -0.6846457965 -0.0518687105 -0.0513308092 -0.0512889031 -0.0512595578 0.7304388734 -0.6718068336
196063750.0 0.7143166239 -0.6891595898 -0.0534378222 -0.052213444 -0.0528994086 -0.0522112472 0.7261763668 -0.6759778562
197312500.0 0.7097502725 -0.6930435434 -0.0550639452 -0.0532104689 -0.054494184 -0.0530762539 0.7216392142 -0.6803709971
198561250.0 0.7051748892 -0.6975553183 -0.0566586388 -0.0541473459 -0.0561698301 -0.054019019 0.7171466792 -0.6843626237
199810000.0 0.700696255 -0.7016297705 -0.058400803 -0.0550228888 -0.05782185 -0.0549055658 0.7132292559 -0.6883976172
201058750.0 0.6959450689 -0.706204984 -0.060179197 -0.055945995 -0.0595796733 -0.0558012624 0.7084989113 -0.6927538246
202307500.0 0.6913295532 -0.7104024704 -0.0619584552 -0.0569101413 -0.061321975 -0.0568992863 0.7046808603 -0.6969067837
203556250.0 0.6863849382 -0.7145165099 -0.0638712898 -0.0579086745 -0.0631354605 -0.0577302795 0.7000743978 -0.700913026
204805000.0 0.6818598645 -0.7186349765 -0.0656675416 -0.0588119149 -0.0650990503 -0.0587164518 0.6952058721 -0.7053513507
206053750.0 0.676716539 -0.7234313626 -0.0676315084 -0.0597488715 -0.066975308 -0.059634626 0.6906440431 -0.7091380999
207302500.0 0.6720133703 -0.7270211011 -0.069680038 -0.0607373059 -0.0689055764 -0.0606047163 0.6857302534 -0.7137304146
208551250.0 0.6667425762 -0.7314199995 -0.071709835 -0.0615675699 -0.0709204461 -0.0616000887 0.68098925 -0.7176154261
209800000.0 0.6615404689 -0.735610282 -0.0737320864 -0.0625782212 -0.0730143984 -0.0625091928 0.6762625921 -0.7216689942
211048750.0 0.6566098496 -0.7394983537 -0.0759980814 -0.0634712806 -0.075202654 -0.0634252419 0.6713919387 -0.726275183
212297500.0 0.6513964378 -0.7437368254 -0.0781135615 -0.0644216656 -0.0773547662 -0.0644427086 0.6665069839 -0.7297466168
213546250.0 0.6463228378 -0.7480083476 -0.0803945745 -0.0654020349 -0.0796830992 -0.0654326676 0.6612812818 -0.7342447735
