!	Fieldfox Controller
!	Chapman University - Class ENG398
!	Introduction to RF - DMG (2024)
! 
!Created with skrf (http://scikit-rf.org).
# Hz S RI R 50.0 
!freq ReS11 ImS11 ReS21 ImS21 ReS12 ImS12 ReS22 ImS22
10000000.0 -0.001747348 -0.0004741044 1.10952e-05 2.96533e-05 1.18389e-05 -2.0908e-05 0.3335902314 -0.005240514
13747500.0 -0.0017587589 -0.0007757876 1.17838e-05 -1.05077e-05 -5.2522e-05 2.52609e-05 0.3332730215 -0.0073172245
17495000.0 -0.0018886234 -0.0008793824 -5.57299e-05 -2.42719e-05 3.84469e-05 -5.43514e-05 0.3331008113 -0.0092225686
21242500.0 -0.0018509841 -0.0012288819 -3.81959e-05 1.6522e-06 4.80271e-05 3.36203e-05 0.3328397979 -0.0111332553
24990000.0 -0.0019058475 -0.0014611207 -3.80791e-05 3.52584e-05 4.50702e-05 3.09755e-05 0.3325996528 -0.0130565995
28737500.0 -0.0020611688 -0.0017408135 -1.95189e-05 -1.43153e-05 -1.82192e-05 9.8261e-06 0.3323354024 -0.0152143673
32485000.0 -0.0020882083 -0.0019739237 1.76341e-05 2.98621e-05 -1.1053e-06 -3.7535e-06 0.3320034685 -0.0173174623
36232500.0 -0.0021939567 -0.0022941193 -1.47707e-05 2.8618e-06 3.7888e-05 6.234e-06 0.331682569 -0.0192939714
39980000.0 -0.0022797706 -0.0025535743 -1.76018e-05 -8.9895e-06 1.4608e-05 -3.65612e-05 0.3312758319 -0.0214033909
43727500.0 -0.0023884822 -0.0028186647 -3.75056e-05 8.749e-07 1.2965e-06 -4.06408e-05 0.3309378245 -0.0235786572
47475000.0 -0.0024834956 -0.0031272157 1.81596e-05 -3.87845e-05 3.89909e-05 6.23968e-05 0.3306855973 -0.0256530192
51222500.0 -0.0025085059 -0.0034545708 -2.18901e-05 -3.00133e-05 2.20185e-05 3.9464e-06 0.3301596471 -0.0278042358
54970000.0 -0.0025704124 -0.0038428173 2.6518e-06 4.9401e-06 3.74459e-05 1.41004e-05 0.3298921065 -0.0300379441
58717500.0 -0.0026221293 -0.0039679601 -1.95247e-05 -1.13516e-05 -1.0247e-05 3.64203e-05 0.3295861733 -0.0320746244
62465000.0 -0.0027010535 -0.004408687 3.63363e-05 -7.22573e-05 1.27138e-05 2.18247e-05 0.3292604472 -0.0343135111
66212500.0 -0.0028222884 -0.0047108882 5.02793e-05 -3.91518e-05 1.4021e-05 6.06546e-05 0.328949234 -0.0366818113
69960000.0 -0.0029095991 -0.0050119719 2.30393e-05 7.7391e-06 1.70854e-05 3.52e-08 0.3285969085 -0.0387479099
73707500.0 -0.0029281093 -0.0053507519 -2.93417e-05 -7.1288e-06 -7.9686e-06 4.90769e-05 0.3284321941 -0.0410128225
77455000.0 -0.002941415 -0.0057824823 -2.67323e-05 7.97292e-05 3.37765e-05 3.498e-05 0.3281668949 -0.0432292722
81202500.0 -0.0028374262 -0.0060839449 1.2332e-05 1.02372e-05 -3.65204e-05 3.171e-06 0.3278299525 -0.045521608
84950000.0 -0.003014954 -0.0062886326 -2.37939e-05 5.48995e-05 -8.90593e-05 8.10046e-05 0.3276801404 -0.0476642523
88697500.0 -0.003033299 -0.0067078492 4.64844e-05 5.28752e-05 5.07693e-05 5.57185e-05 0.3275256094 -0.0499088814
92445000.0 -0.0030795454 -0.0070120739 3.56641e-05 3.90577e-05 -4.70499e-05 2.22084e-05 0.3271747855 -0.0519352623
96192500.0 -0.0029464155 -0.0072701962 -3.32172e-05 3.41301e-05 1.51588e-05 2.06671e-05 0.3270942678 -0.0541010685
99940000.0 -0.0030650709 -0.0077071339 -5.2748e-06 -2.05864e-05 6.035e-06 3.51682e-05 0.3268472134 -0.0562542732
103687500.0 -0.0030267758 -0.0079641187 1.1205e-05 5.31299e-05 -2.93667e-05 -1.65375e-05 0.3267171179 -0.0582273813
107435000.0 -0.0030858377 -0.0082402771 3.54073e-05 6.24241e-05 2.48319e-05 -3.5031e-06 0.3265524778 -0.0602999587
111182500.0 -0.0030510684 -0.0084963684 -1.31757e-05 -2.4644e-05 2.916e-05 8.76641e-05 0.326382132 -0.062407949
114930000.0 -0.0029962627 -0.0088570249 -2.06447e-05 -5.1259e-06 2.19593e-05 -2.31213e-05 0.326171879 -0.0644897892
118677500.0 -0.0031349219 -0.0089900407 7.4399e-06 1.64015e-05 3.39494e-05 2.23323e-05 0.3259647761 -0.0663791767
122425000.0 -0.0030067891 -0.0092057037 -3.58e-07 7.14047e-05 3.64817e-05 1.64778e-05 0.3256997581 -0.068379326
126172500.0 -0.0029934993 -0.0094272705 4.42127e-05 4.60511e-05 2.8704e-06 4.22765e-05 0.3253624542 -0.070458978
129920000.0 -0.0031338893 -0.0097045497 1.37538e-05 5.9299e-05 4.90131e-05 4.29144e-05 0.3249213936 -0.0720547928
133667500.0 -0.0032105042 -0.0099811509 -6.45136e-05 2.13858e-05 6.68772e-05 -1.32487e-05 0.3246580703 -0.074028249
137415000.0 -0.0031881287 -0.010017825 1.23121e-05 3.60292e-05 7.43906e-05 2.85813e-05 0.3244361209 -0.0759659352
141162500.0 -0.0032341402 -0.0103129644 3.1372e-06 3.37496e-05 -3.0468e-06 2.55512e-05 0.3239203952 -0.0776232188
144910000.0 -0.0032370682 -0.0104405352 3.52818e-05 6.64026e-05 3.15941e-05 3.57812e-05 0.3233825216 -0.0794840127
148657500.0 -0.0034271491 -0.0106425027 -3.76131e-05 2.56077e-05 9.3075e-06 4.696e-06 0.3229330922 -0.0812207201
152405000.0 -0.0034418683 -0.0107532486 2.47653e-05 3.2665e-06 -3.41188e-05 6.693e-05 0.3224581724 -0.083095627
156152500.0 -0.0036259116 -0.0110425993 -3.094e-05 -2.43398e-05 -3.94716e-05 3.62e-08 0.3218254151 -0.0850630251
159900000.0 -0.0037409536 -0.0111542962 -2.88823e-05 6.07304e-05 -2.995e-07 4.997e-06 0.3211449407 -0.0867369712
163647500.0 -0.0038928922 -0.0113920138 -1.49922e-05 1.26428e-05 -3.9596e-06 3.34124e-05 0.3205413643 -0.0884954305
167395000.0 -0.0040442071 -0.011551498 2.22945e-05 -8.2725e-06 -1.51812e-05 4.0162e-05 0.3197543126 -0.0906448927
171142500.0 -0.004219766 -0.0117022604 -4.88709e-05 -3.1449e-06 4.5587e-05 8.6679e-06 0.3190772562 -0.0921614735
174890000.0 -0.0043200034 -0.012051478 4.05055e-05 0.0001111578 1.51199e-05 1.86284e-05 0.3182238591 -0.094183448
178637500.0 -0.0045439362 -0.0122349489 4.03967e-05 -4.9106e-06 -1.675e-05 -1.12339e-05 0.3173445811 -0.0962630655
182385000.0 -0.0047297687 -0.012537725 -5.2061e-06 4.69161e-05 -1.21364e-05 4.194e-06 0.316548406 -0.0979577052
186132500.0 -0.0048905496 -0.0127643942 4.25803e-05 9.04944e-05 -5.3801e-06 7.7001e-06 0.3156879937 -0.0998112085
189880000.0 -0.0051612129 -0.0129690153 2.2484e-06 -9.4366e-06 -1.03964e-05 9.2464e-06 0.3149048715 -0.1018891519
193627500.0 -0.005204989 -0.0132299418 1.00511e-05 2.41315e-05 6.42122e-05 1.20796e-05 0.314042531 -0.1038405709
197375000.0 -0.0054691309 -0.0133838164 5.9471e-06 2.67625e-05 2.86953e-05 7.13277e-05 0.313082466 -0.1057301997
201122500.0 -0.0057000248 -0.0137517099 6.8067e-06 4.61117e-05 6.6848e-06 6.28411e-05 0.312222726 -0.10803985
204870000.0 -0.0058471266 -0.0141375641 3.75035e-05 -1.95839e-05 -2.27295e-05 4.05554e-05 0.311408973 -0.1098867863
208617500.0 -0.0061041556 -0.0143030571 -1.99727e-05 7.75741e-05 -1.22131e-05 5.1999e-06 0.3105880827 -0.1119020687
212365000.0 -0.0063110527 -0.0147093975 -1.7749e-06 4.92158e-05 1.26562e-05 -1.22067e-05 0.3098869991 -0.1139890076
216112500.0 -0.0063377241 -0.0150635233 1.54216e-05 6.74857e-05 -4.77358e-05 7.88369e-05 0.3089204927 -0.1161904331
219860000.0 -0.0065002156 -0.0153922714 -1.52906e-05 6.23622e-05 1.01667e-05 5.05482e-05 0.3081183253 -0.1183054545
223607500.0 -0.0067082097 -0.0156711632 2.9433e-05 -2.28601e-05 6.05791e-05 -4.7501e-06 0.3075870462 -0.1203026448
227355000.0 -0.0068184561 -0.0159595098 1.94425e-05 9.0193e-06 -2.40734e-05 8.73231e-05 0.3067159884 -0.122467018
231102500.0 -0.0070840633 -0.0162040914 4.03213e-05 6.74011e-05 -1.46175e-05 8.75395e-05 0.306012903 -0.1243388835
234850000.0 -0.0071381661 -0.016691007 3.7312e-05 1.39449e-05 -3.30972e-05 3.0158e-06 0.305347524 -0.1265252753
238597500.0 -0.0072853386 -0.0169649557 2.73508e-05 9.31514e-05 5.27827e-05 4.94315e-05 0.3045590267 -0.1286443493
242345000.0 -0.0073502861 -0.0172625319 -8.0113e-06 9.1134e-06 4.48173e-05 -2.02912e-05 0.3039598565 -0.1307551202
246092500.0 -0.0074329598 -0.0175626502 -3.184e-07 3.85923e-05 1.36352e-05 5.00889e-05 0.3032363569 -0.1327481667
249840000.0 -0.0075623443 -0.0177961348 -4.00076e-05 1.0005e-06 -7.1273e-06 1.18351e-05 0.3025434223 -0.1347507145
253587500.0 -0.007609571 -0.0181435347 7.10735e-05 3.26445e-05 1.27957e-05 1.99747e-05 0.3020820689 -0.1367084348
257335000.0 -0.0076617619 -0.0184125424 8.4428e-06 5.10315e-05 3.76235e-05 2.26337e-05 0.3014489883 -0.1383258725
261082500.0 -0.0078287943 -0.0186236492 2.07863e-05 7.6753e-05 2.88634e-05 5.9706e-06 0.3006484925 -0.1404980182
264830000.0 -0.0079370488 -0.0188562433 2.26765e-05 7.40279e-05 5.11268e-05 5.68809e-05 0.3000475947 -0.1421794588
268577500.0 -0.0079505488 -0.019096143 1.3253e-06 2.0469e-06 6.83677e-05 -1.41135e-05 0.2994164442 -0.1440473027
272325000.0 -0.0080946767 -0.0192579577 -4.9776e-05 5.59507e-05 -4.97039e-05 3.70095e-05 0.2987689744 -0.1458306692
276072500.0 -0.0080781406 -0.0194525589 3.38052e-05 5.05836e-05 1.9804e-06 3.30409e-05 0.2977730307 -0.1478263822
279820000.0 -0.0082223166 -0.0197384576 7.44291e-05 2.24682e-05 -8.5693e-06 3.18094e-05 0.2971048893 -0.1493037018
283567500.0 -0.0083701127 -0.0198214732 -4.8106e-05 6.65881e-05 -3.35867e-05 0.0001052953 0.2963446931 -0.1508095835
287315000.0 -0.0085390291 -0.0200835327 1.78234e-05 2.3259e-05 4.33248e-05 3.52833e-05 0.2954989908 -0.1527473316
291062500.0 -0.0085799978 -0.0201727697 1.8134e-06 2.17219e-05 7.24666e-05 6.76546e-05 0.2945451271 -0.1544312513
294810000.0 -0.0086884598 -0.0203028055 2.36682e-05 7.46388e-05 -4.1459e-06 8.0335e-05 0.293591146 -0.1560917359
298557500.0 -0.0090129633 -0.0204213532 -1.5992e-06 5.9327e-06 2.18752e-05 9.37763e-05 0.2929034882 -0.1577166334
302305000.0 -0.0091381553 -0.0205324479 1.98871e-05 3.08261e-05 4.58166e-05 6.89747e-05 0.2918404201 -0.1592225785
306052500.0 -0.0093008873 -0.0206312342 3.33995e-05 5.9465e-06 6.9787e-06 5.0195e-06 0.2906724024 -0.160918095
309800000.0 -0.0095977777 -0.0207484972 -1.82988e-05 4.94827e-05 4.12028e-05 4.88262e-05 0.2897252146 -0.1623179454
313547500.0 -0.0097685057 -0.0209824436 -1.01508e-05 5.26349e-05 7.31843e-05 3.62984e-05 0.2885013564 -0.1639737607
317295000.0 -0.0100554663 -0.0210506286 -1.4606e-06 7.84487e-05 4.80715e-05 -9.046e-06 0.2873000149 -0.1656425908
321042500.0 -0.0102581471 -0.0213098144 6.16813e-05 -6.9347e-06 6.96231e-05 8.11501e-05 0.286103707 -0.1674503608
324790000.0 -0.0106761907 -0.0212618656 -3.80924e-05 -1.56417e-05 1.50473e-05 4.75621e-05 0.2849309256 -0.1690948431
328537500.0 -0.0108683959 -0.021453751 0.0001064207 4.20681e-05 -3.6676e-06 5.39781e-05 0.2836374005 -0.170585793
332285000.0 -0.0112270471 -0.0215942111 -2.23577e-05 7.47527e-05 2.67752e-05 5.87877e-05 0.2822667613 -0.172374392
336032500.0 -0.0115021393 -0.0217490498 4.33144e-05 8.01706e-05 3.2036e-06 8.48207e-05 0.2809859219 -0.1741523829
339780000.0 -0.0118947003 -0.0219550639 6.3414e-05 4.4543e-05 5.23811e-05 1.83996e-05 0.279697929 -0.1756207799
343527500.0 -0.0121038718 -0.0220802331 3.42042e-05 5.71998e-05 8.41928e-05 1.52182e-05 0.2783612234 -0.1775850107
347275000.0 -0.0125245399 -0.0223614388 2.07411e-05 6.42135e-05 2.91344e-05 4.45864e-05 0.2770250906 -0.1791714605
351022500.0 -0.012819498 -0.0226498862 -6.4093e-06 9.7518e-06 5.46197e-05 -5.26252e-05 0.2757367614 -0.1810625653
354770000.0 -0.0131082138 -0.022729791 7.4673e-06 6.03167e-05 1.9105e-05 9.2463e-06 0.2744202687 -0.1828179071
358517500.0 -0.0134880306 -0.0230132478 1.58063e-05 2.80246e-05 4.11969e-05 1.19651e-05 0.2731986547 -0.1846774166
362265000.0 -0.0137591028 -0.0234262696 4.1802e-05 6.10178e-05 -2.016e-05 2.02284e-05 0.2718997803 -0.186561233
366012500.0 -0.0141330687 -0.0235954262 9.8785e-06 1.10903e-05 6.36953e-05 5.02374e-05 0.2707952045 -0.1884006027
369760000.0 -0.0144995371 -0.0239674358 7.21336e-05 3.62212e-05 2.39178e-05 6.45876e-05 0.2694549717 -0.190214267
373507500.0 -0.0147259477 -0.0242396307 8.70014e-05 6.5338e-05 6.8184e-06 2.50737e-05 0.2682379237 -0.1920837942
377255000.0 -0.0149891915 -0.0244441934 7.11157e-05 0.0001343516 2.98459e-05 6.79279e-05 0.2671762054 -0.193838347
381002500.0 -0.0152876725 -0.0248384568 7.94975e-05 9.66008e-05 3.76143e-05 7.38307e-05 0.2659174907 -0.1957155573
384750000.0 -0.0154594911 -0.0250834244 6.47298e-05 8.54627e-05 1.24894e-05 9.46821e-05 0.2647788085 -0.1975771264
388497500.0 -0.0158978562 -0.0254118574 2.3675e-06 2.3892e-06 6.50286e-05 0.0001188719 0.2636613186 -0.1993492304
392245000.0 -0.0161421952 -0.0257379261 -6.731e-07 9.04106e-05 3.82078e-05 4.69427e-05 0.2624641988 -0.201176005
395992500.0 -0.0162548527 -0.0260420051 1.02233e-05 3.039e-05 7.24e-06 5.99424e-05 0.2615492969 -0.2028870244
399740000.0 -0.0165583279 -0.0262931503 7.39455e-05 4.93051e-05 4.21733e-05 7.62298e-05 0.260321382 -0.2045519422
403487500.0 -0.0167668185 -0.0265986062 7.9523e-06 1.96248e-05 6.21659e-05 6.67161e-05 0.2591172416 -0.2062937044
407235000.0 -0.0168987149 -0.0267503782 2.65673e-05 0.0001004302 3.0646e-05 7.62288e-05 0.2580920285 -0.2080782752
410982500.0 -0.0172072763 -0.0270604591 8.8154e-06 3.20446e-05 8.58537e-05 8.73287e-05 0.256799981 -0.2096776977
414730000.0 -0.0173136035 -0.0272739091 -3.1065e-06 0.0001525027 6.33782e-05 8.0599e-05 0.2557876369 -0.2112908865
418477500.0 -0.017499986 -0.0274433256 2.33901e-05 2.4422e-06 2.77145e-05 2.28578e-05 0.2545909948 -0.2126799139
422225000.0 -0.0176977598 -0.0277490877 6.46144e-05 3.048e-05 4.9873e-05 6.66822e-05 0.2535309094 -0.2143187072
425972500.0 -0.0178378723 -0.0278788196 4.1459e-05 6.66168e-05 4.22412e-05 9.39754e-05 0.2522967209 -0.2157689085
429720000.0 -0.0180243222 -0.0281266835 4.30335e-05 5.37424e-05 4.12449e-05 0.0001015772 0.2510136487 -0.2172663908
433467500.0 -0.018030358 -0.0282331416 3.74172e-05 6.87889e-05 7.61758e-05 0.0001083317 0.2498382964 -0.2188781731
437215000.0 -0.0183755071 -0.0283863377 5.8715e-05 3.61872e-05 4.8775e-05 4.25274e-05 0.2483720029 -0.2201197167
440962500.0 -0.0185079598 -0.0285427874 3.1473e-05 6.08211e-05 1.08739e-05 8.88762e-05 0.247312182 -0.2213607788
444710000.0 -0.0187713906 -0.0286205283 3.25959e-05 0.0001081294 9.0095e-05 0.0001278672 0.2459475693 -0.2228323077
448457500.0 -0.0189255157 -0.0286337631 5.33615e-05 5.86926e-05 7.7856e-05 9.81935e-05 0.2445851932 -0.2240986696
452205000.0 -0.0191430124 -0.0287690163 6.87036e-05 0.0001320635 4.75481e-05 9.68864e-05 0.2431854851 -0.2252749166
455952500.0 -0.0194435526 -0.0288809997 5.12613e-05 3.97268e-05 4.93916e-05 7.85151e-05 0.2417748603 -0.2267294234
459700000.0 -0.0196767215 -0.0289034695 6.40871e-05 2.92348e-05 9.35699e-05 1.24898e-05 0.2401540423 -0.2279900373
463447500.0 -0.019928467 -0.0289117768 5.64992e-05 6.29557e-05 7.85599e-05 0.0001067519 0.2385523644 -0.2294019928
467195000.0 -0.0202595454 -0.0290607082 6.1964e-06 3.14973e-05 5.14337e-05 7.66043e-05 0.2370075835 -0.2308019964
470942500.0 -0.0205816492 -0.0290689746 5.25071e-05 5.75496e-05 3.18583e-05 6.16845e-05 0.235348554 -0.2320310073
474690000.0 -0.0208897297 -0.0291204217 5.16028e-05 7.225e-05 8.98359e-05 4.19017e-05 0.2336240937 -0.2333578007
478437500.0 -0.0212216378 -0.0291920583 6.02247e-05 6.4092e-05 5.52786e-05 9.9193e-05 0.2319654666 -0.2347876234
482185000.0 -0.0215540195 -0.0291814526 2.99852e-05 8.11867e-05 4.83648e-05 3.8958e-05 0.2302399554 -0.2361151149
485932500.0 -0.0219096855 -0.0293346736 6.90236e-05 7.45479e-05 6.98135e-05 6.71064e-05 0.2285562634 -0.2375318806
489680000.0 -0.0223122433 -0.0294314078 1.21185e-05 5.22656e-05 5.02601e-05 6.28063e-05 0.226929631 -0.2389272309
493427500.0 -0.0225990457 -0.0294982523 9.46869e-05 2.77463e-05 4.80595e-05 3.8317e-05 0.2252465594 -0.2402994148
497175000.0 -0.0231369137 -0.0296068765 0.0001170094 4.71315e-05 6.2449e-05 5.24713e-05 0.223514153 -0.2417776531
500922500.0 -0.0234088019 -0.0296217314 7.1598e-05 7.35067e-05 0.0001109374 8.04214e-05 0.2219118266 -0.2433518705
504670000.0 -0.02385689 -0.0298314696 2.92631e-05 7.98254e-05 4.58864e-05 2.95149e-05 0.2202575589 -0.2449064844
508417500.0 -0.0242330392 -0.029953482 6.1676e-05 3.6858e-05 4.70792e-05 1.38558e-05 0.2186248033 -0.2464558051
512165000.0 -0.0246114216 -0.0301131363 8.33382e-05 1.98374e-05 5.22e-05 4.5092e-05 0.2170124935 -0.2479875441
515912500.0 -0.0250483628 -0.0301748453 7.09689e-05 0.0001136173 0.0001333342 6.82746e-05 0.21550588 -0.2492172586
519660000.0 -0.025412361 -0.0304485053 5.26952e-05 4.42284e-05 4.0339e-05 -1.41955e-05 0.2138595297 -0.2508708008
523407500.0 -0.0258873833 -0.0306006997 8.23302e-05 3.33929e-05 8.1407e-05 8.61207e-05 0.2122862591 -0.2524221015
527155000.0 -0.0262396642 -0.0307207007 5.73503e-05 9.99857e-05 6.0049e-06 5.69871e-05 0.2107090876 -0.2537815721
530902500.0 -0.0266644745 -0.0309297381 1.4551e-05 4.6787e-05 8.45346e-05 9.87177e-05 0.2090531909 -0.2554690562
534650000.0 -0.026953044 -0.0311757663 -1.00822e-05 7.28909e-05 3.55564e-05 4.55911e-05 0.2076839716 -0.2569781737
538397500.0 -0.0272517851 -0.0312908267 0.0001335422 8.6802e-05 3.96204e-05 2.34056e-05 0.2061684084 -0.258347284
542145000.0 -0.0276486498 -0.0315424024 1.257e-07 2.73244e-05 7.53438e-05 0.0001269066 0.204574904 -0.25982388
545892500.0 -0.0280052328 -0.0316677187 8.14555e-05 7.10101e-05 0.0001095843 8.17448e-05 0.2030916109 -0.2612359051
549640000.0 -0.0283447762 -0.0318684327 7.71971e-05 9.47129e-05 4.57368e-05 7.09222e-05 0.2016315214 -0.2625776953
553387500.0 -0.0285453893 -0.031989076 8.26402e-05 9.95183e-05 7.96799e-05 7.66176e-05 0.2001682194 -0.2638635657
557135000.0 -0.0288783741 -0.0321405686 4.77304e-05 4.59117e-05 6.14437e-05 7.94593e-05 0.1985403976 -0.2652118808
560882500.0 -0.0291723083 -0.0323769767 9.25902e-05 5.20001e-05 2.9653e-05 6.11081e-05 0.1971383679 -0.2665978755
564630000.0 -0.029489104 -0.0325036967 3.54785e-05 0.0001230949 8.31877e-05 8.22085e-05 0.1955339478 -0.2674961504
568377500.0 -0.0297691808 -0.0326868258 8.91993e-05 0.0001357469 4.62665e-05 6.62895e-05 0.1939882222 -0.268923734
572125000.0 -0.0300337578 -0.0328847994 5.45179e-05 7.25506e-05 7.195e-06 8.45123e-05 0.1923899754 -0.2698859147
575872500.0 -0.0303017768 -0.0329175534 9.9987e-05 8.76004e-05 3.64937e-05 8.15063e-05 0.1908315493 -0.271138666
579620000.0 -0.0305125719 -0.0329692365 0.0001101902 0.0001054331 1.33557e-05 0.0001001926 0.1893174043 -0.2723312696
583367500.0 -0.0307213823 -0.0330948217 0.0001004349 0.0001151593 8.42071e-05 5.28266e-05 0.1876747765 -0.2732822031
587115000.0 -0.0309878654 -0.0332153263 8.70418e-05 3.73658e-05 4.78097e-05 0.0001010397 0.1858827118 -0.2742450261
590862500.0 -0.0313946812 -0.0332551367 7.13432e-05 9.31223e-05 7.28963e-05 0.0001369482 0.1844456017 -0.2751176953
594610000.0 -0.0314999679 -0.0332492964 0.0001344177 9.37852e-05 6.22927e-05 5.00679e-05 0.1826279959 -0.2761372642
598357500.0 -0.0318179418 -0.0333674695 0.0001173106 1.5839e-05 3.73699e-05 7.03211e-05 0.1809027499 -0.2771682706
602105000.0 -0.032112053 -0.0333730076 2.82173e-05 7.80848e-05 7.74937e-05 6.20726e-05 0.1791571922 -0.278141589
605852500.0 -0.032379275 -0.0332711194 7.38976e-05 9.46604e-05 -3.0594e-06 0.0001265158 0.177306964 -0.2790159765
609600000.0 -0.0325954616 -0.0332968247 5.20647e-05 0.0001133426 3.74565e-05 6.63666e-05 0.1753653056 -0.279924996
613347500.0 -0.0330080673 -0.0333783776 2.34573e-05 0.0001054676 8.66716e-05 0.0001153475 0.1736711566 -0.2808436254
617095000.0 -0.0333901588 -0.0332581825 9.64235e-05 0.0001163494 8.92503e-05 4.22486e-05 0.1716014338 -0.2819836217
620842500.0 -0.0337217008 -0.0332546405 6.16975e-05 0.0001253836 8.13786e-05 7.12734e-05 0.1697168134 -0.2828012752
624590000.0 -0.0340834732 -0.0332177732 0.0001100702 8.24823e-05 7.50353e-05 6.66066e-05 0.1677080351 -0.2837945805
628337500.0 -0.0344676444 -0.0331224461 0.000116268 0.0001334815 7.80055e-05 8.12716e-05 0.1655313111 -0.2846909858
632085000.0 -0.0348814756 -0.0331438829 9.13819e-05 0.0001094885 4.66871e-05 8.73505e-05 0.1637822713 -0.2857692808
635832500.0 -0.0352079102 -0.0331164567 7.0687e-05 8.31733e-05 6.66606e-05 5.93588e-05 0.1615690711 -0.2867657182
639580000.0 -0.0356402975 -0.0330806275 7.06583e-05 0.0001215516 0.0001001452 8.36635e-05 0.1596631473 -0.2877709144
643327500.0 -0.0360160082 -0.0330819236 9.89812e-05 6.10857e-05 9.04597e-05 5.42679e-05 0.157561695 -0.2889261395
647075000.0 -0.0365304985 -0.033079438 8.35878e-05 7.60856e-05 8.9865e-05 0.0001018314 0.1555812394 -0.2900774526
650822500.0 -0.0370174977 -0.0331048374 8.92182e-05 5.98457e-05 7.9507e-05 6.83e-05 0.1537038261 -0.2910883581
654570000.0 -0.037366569 -0.0330627628 5.77639e-05 0.0001315342 0.0001739963 0.0001478951 0.1517154703 -0.292281505
