!	Fieldfox Controller
!	Chapman University - Class ENG398
!	Introduction to RF - DMG (2024)
! 
!Created with skrf (http://scikit-rf.org).
# Hz S RI R 50.0 
!freq ReS11 ImS11 ReS21 ImS21 ReS12 ImS12 ReS22 ImS22
10000000.0 0.0009934257 -1.51568e-05 0.9991532797 -0.0153225696 0.9985084739 -0.0153049188 0.000973207 0.0001414888
11248750.0 0.0009575231 2.9371e-05 0.998721124 -0.0173535836 0.9989754041 -0.0175950559 0.0009488872 0.0001015227
12497500.0 0.0010023177 -8.94577e-05 0.998599213 -0.0188578579 0.9987397796 -0.0194474649 0.000915331 0.0001554962
13746250.0 0.0009389915 -0.0001745812 0.9987009037 -0.0211162297 0.9987174881 -0.0214062535 0.0008869362 0.000193563
14995000.0 0.0009924205 -0.0001388233 0.9985448247 -0.0235122824 0.998495954 -0.0234788831 0.0009532265 9.44561e-05
16243750.0 0.0009279539 -0.0002964102 0.9986422603 -0.0250734904 0.9984409431 -0.0248142934 0.0009469497 0.0001138667
17492500.0 0.0010229575 -0.0002478405 0.9987455304 -0.0269323118 0.9985286035 -0.0268691042 0.0008613022 2.2349e-05
18741250.0 0.0010644232 -0.0003032934 0.9982288091 -0.0284996394 0.9985550655 -0.0287108237 0.0008571721 1.32696e-05
19990000.0 0.0010826445 -0.0003356528 0.9982903554 -0.0309651077 0.9984275481 -0.0306580951 0.0009532817 5.31068e-05
21238750.0 0.0010723787 -0.0004195928 0.9984557506 -0.0323932705 0.9979505435 -0.0324615866 0.0009695607 -2.65929e-05
22487500.0 0.0011260963 -0.0004461415 0.9980439949 -0.034328696 0.9980125097 -0.0348204367 0.0009029376 -6.22342e-05
23736250.0 0.0011564642 -0.000492383 0.9980167856 -0.0362242468 0.9981677164 -0.0364380181 0.0009342301 -4.6443e-06
24985000.0 0.0011683156 -0.0005486993 0.9978406685 -0.0381303307 0.997756484 -0.0382210362 0.0008517601 -4.92446e-05
26233750.0 0.0011451953 -0.0005236119 0.9976905493 -0.0400237163 0.9976262535 -0.0402014424 0.0009358055 -0.0001148177
27482500.0 0.0010906646 -0.0006112856 0.9972495724 -0.0420926882 0.9978470616 -0.0417021766 0.0008688464 -8.57187e-05
28731250.0 0.0010586859 -0.0007303436 0.9974621972 -0.0437438025 0.9973552176 -0.0438612755 0.0008133808 -0.0002389941
29980000.0 0.001188472 -0.0007057107 0.9971192458 -0.0458337642 0.9972602865 -0.0458645701 0.0008188199 -0.000192401
31228750.0 0.0011186482 -0.0007638343 0.9973280631 -0.0477901988 0.9973760184 -0.0479156598 0.0008181306 -0.0002564536
32477500.0 0.0011599681 -0.0008253667 0.9969989491 -0.0489472475 0.9972268707 -0.0497007554 0.0008456302 -0.0003676968
33726250.0 0.0011584411 -0.0008903783 0.9971142618 -0.0515458894 0.9969777132 -0.0514662422 0.0008551763 -0.000428048
34975000.0 0.0011968861 -0.000897938 0.996759461 -0.053203015 0.9968456802 -0.0533519025 0.0008030227 -0.0004394134
36223750.0 0.0011804797 -0.0010687336 0.9968207751 -0.0551609174 0.9967630647 -0.0552004322 0.0007997649 -0.0004751938
37472500.0 0.0011781505 -0.0009637153 0.9967153478 -0.0569568283 0.9964048458 -0.0570908093 0.0007186772 -0.0004992771
38721250.0 0.0011525336 -0.001067048 0.9963416361 -0.0589464348 0.9963524997 -0.0587992584 0.0006750051 -0.0005338289
39970000.0 0.0011465839 -0.0012153056 0.9963381658 -0.0607600283 0.9964228759 -0.0607351094 0.0006909227 -0.0006678143
41218750.0 0.0011450873 -0.0012952055 0.9960470684 -0.0627238963 0.9960576765 -0.0626553094 0.0006353631 -0.0006028388
42467500.0 0.001163699 -0.0012113095 0.9960224328 -0.0645247312 0.9960597743 -0.0646587586 0.0007061045 -0.0006901904
43716250.0 0.0012123629 -0.0014102544 0.9957295272 -0.0664109633 0.9960460311 -0.0663971243 0.0005310396 -0.0008157659
44965000.0 0.0012259802 -0.001459919 0.9958240333 -0.0681205432 0.9957131756 -0.0685057708 0.0006427072 -0.0007239962
46213750.0 0.0011710108 -0.0014749376 0.9955000375 -0.0700527642 0.9956412708 -0.0700981902 0.0006095529 -0.000966863
47462500.0 0.0012053227 -0.0016062298 0.9955043883 -0.0719091849 0.9950676439 -0.0721444787 0.0005709137 -0.0009006842
48711250.0 0.0012676464 -0.001643292 0.9951142507 -0.0737674184 0.9955263826 -0.0741404238 0.0005974264 -0.0010429104
49960000.0 0.0011847497 -0.0016481993 0.9952235031 -0.0757300085 0.9950905882 -0.0756024515 0.000496806 -0.0011186793
51208750.0 0.0012359119 -0.0017555119 0.9950276245 -0.0777684958 0.9949009221 -0.0776821521 0.0004499502 -0.001162145
52457500.0 0.0012391362 -0.0018147494 0.9948315669 -0.0792982367 0.9946907049 -0.0795130361 0.0004475559 -0.0012587606
53706250.0 0.0011848488 -0.001910993 0.9948002078 -0.0811556231 0.9948768509 -0.0813593588 0.0003879563 -0.0012912758
54955000.0 0.0012594577 -0.0019534993 0.9946297211 -0.0832611023 0.9943616111 -0.0833325859 0.0004167076 -0.0014545927
56203750.0 0.0012474817 -0.0020435018 0.9944669731 -0.0848429783 0.9943433679 -0.0850465079 0.0004657564 -0.0014416098
57452500.0 0.0011794122 -0.0021596699 0.9941568445 -0.0867508001 0.9937648951 -0.0870406409 0.0004011113 -0.0015971316
58701250.0 0.0012294784 -0.0021905304 0.9938156441 -0.0887957839 0.9937784531 -0.0887308258 0.0004282955 -0.0017512207
59950000.0 0.0013280113 -0.002254763 0.9936083019 -0.0906340475 0.9935715557 -0.0905522791 0.0003080947 -0.0017989245
61198750.0 0.0011770384 -0.0023800861 0.9936962415 -0.0925612323 0.9934781423 -0.09248711 0.0004078961 -0.001919764
62447500.0 0.0012036133 -0.0023862669 0.9932640443 -0.0941576663 0.9932726736 -0.0943654864 0.0004110777 -0.0020148192
63696250.0 0.0011947876 -0.0024874881 0.9934508399 -0.0957594352 0.9932429494 -0.0958806901 0.0003570793 -0.0020104092
64945000.0 0.00119304 -0.0026324563 0.9931323771 -0.0977952747 0.9924710915 -0.0979903019 0.0003562795 -0.0020877336
66193750.0 0.0012012845 -0.0027319338 0.9924788954 -0.0997463915 0.992686345 -0.1001462127 0.0003672744 -0.0023083623
67442500.0 0.0011626557 -0.0027441313 0.9927099986 -0.1016936247 0.9923851256 -0.1018410938 0.0003823348 -0.0022359091
68691250.0 0.0011820307 -0.0029079099 0.9920876244 -0.1036331271 0.9920699255 -0.1037966569 0.0003387334 -0.0024433218
69940000.0 0.0012246722 -0.0029290732 0.9921766463 -0.1052797856 0.9922281281 -0.1052414729 0.0003508404 -0.002463238
71188750.0 0.0011691444 -0.0028916129 0.9919440983 -0.1070590099 0.9920336952 -0.1071559342 0.0003766312 -0.0025495166
72437500.0 0.0012425019 -0.0031782794 0.9919435461 -0.1089762452 0.9914649235 -0.1094447791 0.0003329555 -0.0025852918
73686250.0 0.0011942014 -0.0031610628 0.9913704192 -0.1108184416 0.9911997393 -0.1109356964 0.0002661805 -0.0027323226
74935000.0 0.0011163699 -0.0033058703 0.9909936489 -0.1129612564 0.9911862507 -0.1128839289 0.0003249614 -0.0028427869
76183750.0 0.0011823822 -0.003361841 0.9907925819 -0.1145885587 0.990909479 -0.1148177182 0.0002401126 -0.0028820901
77432500.0 0.001193816 -0.0033770108 0.9901904925 -0.116673554 0.99074209 -0.1167673581 0.0002981286 -0.0030042499
78681250.0 0.0012831871 -0.0034398856 0.990257163 -0.118335589 0.9903106114 -0.1185310889 0.000223255 -0.0031001573
79930000.0 0.0011188011 -0.0036194846 0.990000671 -0.1201814317 0.9902843901 -0.1205679917 0.0004265095 -0.0031063008
81178750.0 0.0010931645 -0.0036296132 0.98955233 -0.1220168327 0.9899896009 -0.1223602278 0.0004053793 -0.0032725407
82427500.0 0.0011332449 -0.0036669405 0.9893932992 -0.1237501761 0.9899220877 -0.1241241057 0.000304144 -0.0033945462
83676250.0 0.0011627721 -0.0038344562 0.9897394889 -0.1255796625 0.9893425298 -0.1257450225 0.0004199461 -0.0034044126
84925000.0 0.0011546333 -0.0038516121 0.989249877 -0.1276245715 0.9888643142 -0.1274458578 0.0003748483 -0.003571645
86173750.0 0.0011232977 -0.0040004045 0.9887118887 -0.1291496226 0.9889631917 -0.1294320079 0.000425871 -0.0037069616
87422500.0 0.0011565783 -0.0040481603 0.9889536096 -0.1312526286 0.98860795 -0.1314628248 0.0003853838 -0.0036371136
88671250.0 0.0010762014 -0.004110848 0.9883901709 -0.1329964742 0.9882057272 -0.1332575151 0.0003928749 -0.003832989
89920000.0 0.0011137188 -0.0042472586 0.9881881651 -0.1350898763 0.9879003272 -0.1346680792 0.0005035235 -0.003867801
91168750.0 0.0011071617 -0.0042217774 0.9877997861 -0.1364323187 0.9875756028 -0.1365578033 0.00049691 -0.0039736968
92417500.0 0.0011311364 -0.004458822 0.9875046046 -0.1387408157 0.987466341 -0.1385382878 0.0005092347 -0.0041426429
93666250.0 0.0010361993 -0.0045472983 0.9874455202 -0.1404774028 0.9872485719 -0.1407188565 0.0005266406 -0.0042671295
94915000.0 0.001016763 -0.0045315546 0.9871278772 -0.1424698761 0.9868601982 -0.1425527116 0.0004835767 -0.0042596192
96163750.0 0.0010486197 -0.0046560783 0.9867899496 -0.1439557391 0.9865515363 -0.1441224675 0.0005581528 -0.0043632974
97412500.0 0.0009482517 -0.004786926 0.9862991039 -0.1457076374 0.9861942973 -0.1460900497 0.0005447096 -0.0044753851
98661250.0 0.0009943758 -0.0048404469 0.9860291114 -0.1478548004 0.98620258 -0.1480157692 0.0005130756 -0.0046004659
99910000.0 0.0009259547 -0.0048189099 0.9856769134 -0.1499815187 0.9855804355 -0.1501016484 0.0004513407 -0.0045241638
101158750.0 0.0009556285 -0.0048803546 0.985830452 -0.151422361 0.9852518035 -0.1515469126 0.0005559213 -0.0045541729
102407500.0 0.001006016 -0.0048504901 0.9847567699 -0.153329939 0.9848269176 -0.1532218898 0.000568617 -0.0045556024
103656250.0 0.0010028642 -0.0049421172 0.9846975976 -0.1550589266 0.9846208787 -0.1552063123 0.0006268733 -0.0047864577
104905000.0 0.0010152992 -0.0049963024 0.9845672364 -0.1567306101 0.9843300006 -0.1571173044 0.0007091917 -0.0048628724
106153750.0 0.0009701758 -0.0050987095 0.9842657885 -0.1588473929 0.9841399019 -0.1589533095 0.0008028274 -0.0049161724
107402500.0 0.0010239533 -0.0052523397 0.9840865674 -0.1609160176 0.9837411511 -0.160912042 0.0008961114 -0.0049082269
108651250.0 0.0009265654 -0.0053524684 0.9836877102 -0.1626959322 0.9833383671 -0.1626040863 0.0008981991 -0.0050301069
109900000.0 0.0009786623 -0.0053188788 0.9832827253 -0.1645822777 0.983043524 -0.1641597189 0.0009452436 -0.0051254944
111148750.0 0.0010469215 -0.0054462389 0.9826796612 -0.1661792111 0.9829044275 -0.1658617698 0.0008779812 -0.0052027605
112397500.0 0.0008734499 -0.005500384 0.9827001401 -0.1680410424 0.9826107359 -0.1681071516 0.0009022301 -0.0052333809
113646250.0 0.0009041515 -0.0055654785 0.9824763494 -0.1701211364 0.9819337031 -0.1700779719 0.0009755547 -0.005301733
114895000.0 0.0009014369 -0.005646086 0.9818589891 -0.1716891286 0.9819400193 -0.1714238421 0.000990799 -0.0053243788
116143750.0 0.0009094513 -0.0056587658 0.9814769355 -0.1732374884 0.9815865821 -0.1736052523 0.0009868714 -0.0054389367
117392500.0 0.0009505739 -0.0057336192 0.981276408 -0.1753398669 0.98097902 -0.1754786362 0.0011615463 -0.0055468981
118641250.0 0.0008845515 -0.0058501023 0.9809043363 -0.1772218697 0.9810813478 -0.1771926229 0.0012154551 -0.0055062629
119890000.0 0.0008388016 -0.0058543185 0.9804783095 -0.1790979738 0.9805556525 -0.1787904295 0.0011957546 -0.0055460034
121138750.0 0.0007943167 -0.0059675868 0.9800778189 -0.1807693719 0.9801393358 -0.1807851669 0.0012606898 -0.0056359254
122387500.0 0.0007977666 -0.0059889051 0.9797600855 -0.182891291 0.979869509 -0.1825867231 0.0012354098 -0.0055896106
123636250.0 0.0008755034 -0.0060505286 0.9790452631 -0.1845093237 0.9792935187 -0.1845297484 0.001188479 -0.0057030125
124885000.0 0.0008141354 -0.0060446088 0.9791815358 -0.1862460356 0.9788784045 -0.1861741331 0.0013506166 -0.0057450492
126133750.0 0.0007911993 -0.0061520165 0.9783942203 -0.1879941721 0.9786266304 -0.1883870134 0.0013003465 -0.0057959403
127382500.0 0.0007690641 -0.0062755201 0.9783066225 -0.190021467 0.9779896973 -0.1897148566 0.0013791945 -0.005848654
128631250.0 0.0006799917 -0.0062726799 0.9777697864 -0.1917868117 0.9779409826 -0.1917672224 0.0013298829 -0.005873508
129880000.0 0.0006885113 -0.0062823289 0.9775250478 -0.193522214 0.9777311689 -0.1935941498 0.001407413 -0.0059835662
131128750.0 0.0007631937 -0.006404876 0.9771037328 -0.1953709221 0.976833062 -0.1952523303 0.0013643776 -0.0059228588
132377500.0 0.0006729439 -0.0063559042 0.9765781846 -0.1969027341 0.9766762541 -0.1974405599 0.0014210805 -0.0059572008
133626250.0 0.0006687161 -0.0065057859 0.9765734631 -0.1987902692 0.9760987845 -0.1991326145 0.001623085 -0.0059935687
134875000.0 0.0007367859 -0.0065466346 0.9758843776 -0.2006993534 0.976121784 -0.2006110511 0.0015324942 -0.0059963631
136123750.0 0.0006937435 -0.0066462153 0.9756179406 -0.202466342 0.975640577 -0.2021767883 0.0015138062 -0.0060390226
137372500.0 0.0005877619 -0.006603355 0.9750800085 -0.2045572068 0.9752123642 -0.2043968341 0.001537768 -0.0060567576
138621250.0 0.0005919929 -0.0066532052 0.9748964537 -0.2062263281 0.9750058503 -0.2057629632 0.0015437953 -0.0060735819
139870000.0 0.0005259695 -0.0067677446 0.9745459646 -0.2079734024 0.9743744798 -0.2082211142 0.0016268369 -0.0061720322
141118750.0 0.0005423136 -0.0067145678 0.9739834867 -0.2098712184 0.974239869 -0.2096854078 0.001591989 -0.0061056032
142367500.0 0.000523837 -0.0068368953 0.9735021951 -0.2115316561 0.9735079181 -0.2114931444 0.0015809525 -0.0061062835
143616250.0 0.000446401 -0.0067574172 0.9730221278 -0.2136610409 0.9729863405 -0.2137471116 0.0015854335 -0.0061789878
144865000.0 0.0005135871 -0.0069096915 0.9726035551 -0.2151701847 0.9728118838 -0.2150109995 0.0016435968 -0.0062375081
146113750.0 0.0004009481 -0.0068996277 0.9725238624 -0.2174741616 0.9721914198 -0.2169227974 0.0016862828 -0.0061934142
147362500.0 0.0005131406 -0.0069892739 0.9717736562 -0.2185560937 0.9715706668 -0.2186871164 0.0016260598 -0.0061492965
148611250.0 0.000408489 -0.0069648349 0.9714738993 -0.220586235 0.9714075747 -0.220662246 0.0017211292 -0.0063498291
149860000.0 0.0004154694 -0.0070145424 0.9708629518 -0.2224404105 0.9711520044 -0.2226413592 0.0017029851 -0.0063505516
151108750.0 0.0003783375 -0.0070734522 0.9703377821 -0.2244561866 0.9702568157 -0.2242000497 0.0016445825 -0.0064032719
152357500.0 0.0004006815 -0.0070879895 0.9699697907 -0.2259321344 0.9701172031 -0.225845498 0.0016198501 -0.0063559084
153606250.0 0.0003932293 -0.0071638911 0.9697141371 -0.2278538745 0.9696401665 -0.2280712003 0.0015983242 -0.0062803182
154855000.0 0.0004723333 -0.0071703506 0.9694210641 -0.2298008979 0.9693760406 -0.2293928147 0.0016810597 -0.0063459267
156103750.0 0.000320348 -0.0071322539 0.9686817281 -0.2315166353 0.9688963464 -0.2316371499 0.001679643 -0.0064166264
157352500.0 0.0003150138 -0.0071883592 0.9685030399 -0.2335195448 0.9684049767 -0.2334522779 0.0016252463 -0.0063224935
158601250.0 0.0002823562 -0.0072746434 0.967886306 -0.2351532156 0.9675541557 -0.2350229872 0.0015789074 -0.0064503732
159850000.0 0.0003145638 -0.0073578691 0.967578813 -0.2366706361 0.967334364 -0.2367690951 0.0016802683 -0.0063217823
161098750.0 0.0001428642 -0.0074570239 0.9671513994 -0.238751241 0.9671372363 -0.2385641061 0.001590764 -0.0063225399
162347500.0 0.0002234134 -0.0074046545 0.9666855463 -0.2405561929 0.9662617914 -0.2403943222 0.0016038212 -0.0064205415
163596250.0 0.0001738688 -0.0074647425 0.9661256651 -0.242424454 0.9659762524 -0.2426024783 0.0015433616 -0.006454038
164845000.0 6.57864e-05 -0.0074608234 0.9658292344 -0.2439385936 0.9654533453 -0.2441933685 0.001660742 -0.0065277175
166093750.0 0.0001195407 -0.0075210887 0.9652491914 -0.2457160619 0.9649148563 -0.2457822465 0.0014125757 -0.0064916468
167342500.0 0.0001214408 -0.0075202594 0.964643593 -0.2474043691 0.9645866733 -0.2479384019 0.0015601337 -0.0065698113
168591250.0 9.20289e-05 -0.0076185227 0.9637085821 -0.249249084 0.9640881431 -0.2491014283 0.0014417553 -0.0065209208
169840000.0 0.0001125751 -0.0076584908 0.9632902853 -0.2511547186 0.9635404808 -0.2511340041 0.0014851074 -0.0064692573
171088750.0 0.0001037699 -0.0076559018 0.9631429628 -0.2528669563 0.9631833376 -0.2527957599 0.0013858459 -0.0065272849
172337500.0 -0.0001112465 -0.0077073044 0.9629307111 -0.2545814431 0.9627726045 -0.2544919895 0.0013449558 -0.0065781606
173586250.0 -1.14213e-05 -0.0077850848 0.96197227 -0.2561503709 0.9619385162 -0.2562057377 0.0013431712 -0.006630251
174835000.0 -4.36253e-05 -0.0078831995 0.9615798313 -0.2582773713 0.9615042565 -0.2580200478 0.0012333285 -0.0067143971
176083750.0 2.87188e-05 -0.0077691678 0.961252788 -0.2602745931 0.961306979 -0.2602442944 0.0012074825 -0.0067478542
177332500.0 -5.2648e-06 -0.0079494343 0.960340195 -0.2618833161 0.9608887551 -0.2623079575 0.0012497016 -0.0067296438
178581250.0 -3.73312e-05 -0.0079332646 0.9601755379 -0.2638669368 0.9600098442 -0.2635438627 0.0012243986 -0.0066963024
179830000.0 -6.51489e-05 -0.0080680121 0.9593169709 -0.2654615295 0.959624781 -0.2654755151 0.0011271674 -0.0067697695
181078750.0 -2.50944e-05 -0.008018511 0.9593513902 -0.2666937109 0.9588827078 -0.2674735768 0.001118158 -0.0068067796
182327500.0 -0.0001197765 -0.0080518109 0.9586620635 -0.2691008506 0.9584357049 -0.2686102984 0.0010726274 -0.0067447682
183576250.0 -0.0001191794 -0.0081039713 0.9578846125 -0.2705933392 0.9577986911 -0.2705901801 0.000901243 -0.0069496283
184825000.0 -8.00305e-05 -0.0082669355 0.9577141982 -0.2725700284 0.9573125975 -0.2729919083 0.0010172303 -0.0069117427
186073750.0 -7.35974e-05 -0.0081788846 0.9570392645 -0.2743139836 0.9569542982 -0.2743694861 0.0009847482 -0.0069940112
187322500.0 -0.0001748228 -0.0082103051 0.9566671786 -0.2759596189 0.9563528961 -0.2761250494 0.0008626908 -0.0070250887
188571250.0 -0.0001700286 -0.0083749504 0.9559968853 -0.277841758 0.9560597855 -0.2774472214 0.000746647 -0.0070799534
189820000.0 -0.0002787345 -0.0083300089 0.955409014 -0.2794287962 0.9552122552 -0.2798939563 0.0006850965 -0.0070904886
191068750.0 -0.0002658216 -0.0084462457 0.9549306321 -0.2812149058 0.9548472945 -0.2814343844 0.0005858881 -0.0072286306
192317500.0 -0.0003007803 -0.0085377949 0.9542532196 -0.2828918925 0.9543664406 -0.2831270202 0.0005746827 -0.0072602775
193566250.0 -0.0001942311 -0.0085322042 0.9536740596 -0.2850156889 0.9535308741 -0.2851184665 0.0005180036 -0.0072787691
194815000.0 -0.0002502966 -0.0086561799 0.9533582802 -0.2867969702 0.9533934506 -0.2864561124 0.0004508545 -0.0074386937
196063750.0 -0.0002622026 -0.0086220505 0.9526268039 -0.2881512623 0.9525551066 -0.28893993 0.0003910872 -0.0075123152
197312500.0 -0.00020113 -0.008811623 0.9522831899 -0.2898181992 0.9519333782 -0.2900163986 0.0003136662 -0.0075572205
198561250.0 -0.0001999487 -0.0089058641 0.9514078109 -0.2920822587 0.9514921234 -0.2919955598 0.0001508395 -0.0075077471
199810000.0 -0.0003329604 -0.0089300992 0.9506132457 -0.2936919111 0.9508252474 -0.2936742903 0.0001765192 -0.0076771876
201058750.0 -0.0003015286 -0.0090110892 0.9505403553 -0.2950153777 0.9506429376 -0.2956717891 0.0002195717 -0.007656788
202307500.0 -0.0003193664 -0.0091592781 0.9498678037 -0.2971436294 0.9499159365 -0.2971344031 9.03894e-05 -0.0076794063
203556250.0 -0.0003779939 -0.0091343377 0.9497342164 -0.298931832 0.9494433216 -0.2989078785 -4.09388e-05 -0.0077751696
204805000.0 -0.0002578362 -0.0092302096 0.9486989505 -0.300612618 0.9487276143 -0.3008884087 -0.0001024388 -0.00778167
206053750.0 -0.0003200621 -0.0092643011 0.9482984378 -0.3024950938 0.948026406 -0.3022224145 -8.35242e-05 -0.0079453187
207302500.0 -0.0003940744 -0.0094271256 0.9477278908 -0.3040995475 0.947489255 -0.30420486 -0.0001707611 -0.007936833
208551250.0 -0.000404646 -0.0095768459 0.9469076583 -0.3055966094 0.9468653328 -0.305839533 -0.0002387104 -0.0081045703
209800000.0 -0.0004402251 -0.0095516248 0.946685816 -0.3075015665 0.9464559528 -0.3076522673 -0.0003331286 -0.0081681373
211048750.0 -0.0003964234 -0.0097215896 0.9459556599 -0.3094209515 0.9456787308 -0.3095060713 -0.0003653966 -0.0082608883
212297500.0 -0.000452663 -0.0096561233 0.945056994 -0.311286086 0.9452688252 -0.3110781095 -0.0005320175 -0.008332934
213546250.0 -0.0004466965 -0.0097776725 0.9448067259 -0.3126283622 0.9450441645 -0.3132948188 -0.0005503588 -0.0084529063
214795000.0 -0.0004136 -0.0098524057 0.9440409382 -0.3147882652 0.9438700535 -0.315118484 -0.0006520216 -0.0084849866
216043750.0 -0.0003706956 -0.0098581694 0.9432452624 -0.3166418156 0.9433685395 -0.3166067526 -0.0006748568 -0.0085809339
