!	Fieldfox Controller
!	Chapman University - Class ENG398
!	Introduction to RF - DMG (2024)
! 
!Created with skrf (http://scikit-rf.org).
# Hz S RI R 50.0 
!freq ReS11 ImS11 ReS21 ImS21 ReS12 ImS12 ReS22 ImS22
10000000.0 -0.9983849928 0.015586419 8.7554e-06 7.706e-06 1.94852e-05 3.95933e-05 -0.9975112593 0.0160728773
11873750.0 -0.9979882616 0.0186398966 1.5759e-06 -1.91378e-05 -4.6205e-06 -1.02225e-05 -0.9976325879 0.0190938856
13747500.0 -0.9979679359 0.0215944081 -2.34101e-05 4.21202e-05 1.33418e-05 2.95569e-05 -0.9973308597 0.0222748561
15621250.0 -0.9977822706 0.0243277362 1.26105e-05 2.90895e-05 3.2489e-05 -2.96157e-05 -0.9974340381 0.0249720504
17495000.0 -0.9976864715 0.0269607748 3.8148e-06 1.70539e-05 2.37286e-05 -9.0316e-06 -0.9974240364 0.0279882775
19368750.0 -0.9973707368 0.0295940999 5.30614e-05 -9.0127e-06 3.9497e-06 1.08894e-05 -0.9969132862 0.030892069
21242500.0 -0.9973197944 0.0321822155 -1.57635e-05 -1.63407e-05 -2.06673e-05 3.80546e-05 -0.9967806119 0.0337235738
23116250.0 -0.9968370965 0.0352705629 3.796e-07 6.5019e-05 -2.2375e-05 -4.32929e-05 -0.9968730808 0.0364954251
24990000.0 -0.9969814163 0.0381066632 8.0562e-06 -4.2378e-06 9.0678e-06 3.12871e-05 -0.9964011065 0.039294291
26863750.0 -0.9967916749 0.0408096215 -7.9264e-06 2.48078e-05 -1.3916e-05 5.93247e-05 -0.9958748351 0.0424286227
28737500.0 -0.996334817 0.0435596403 5.0808e-05 1.92904e-05 4.87742e-05 2.3359e-06 -0.9961252204 0.0454702738
30611250.0 -0.9962474292 0.0461648995 -3.567e-07 1.96236e-05 4.5174e-05 1.65665e-05 -0.9959724893 0.0479423083
32485000.0 -0.9957683395 0.0487488396 9.1219e-06 -7.7905e-06 6.594e-07 -5.7578e-06 -0.9957291119 0.0511820822
34358750.0 -0.9955846474 0.0516805406 3.41818e-05 -1.70344e-05 3.45593e-05 3.70322e-05 -0.995682337 0.0538514449
36232500.0 -0.9954956266 0.0547649202 3.71173e-05 4.897e-05 -2.29448e-05 -9.3208e-06 -0.9951072621 0.0569556038
38106250.0 -0.99505839 0.0572600314 -1.02993e-05 -2.7349e-05 -3.11179e-05 -1.85465e-05 -0.9951998041 0.0597243653
39980000.0 -0.9951440218 0.0600960815 7.5998e-05 -2.12459e-05 -1.47178e-05 4.08361e-05 -0.9946142503 0.0624751404
41853750.0 -0.9946855134 0.0625971957 3.58823e-05 9.8663e-06 3.12821e-05 6.54838e-05 -0.9947811144 0.0655396054
43727500.0 -0.9946849321 0.0653135669 1.89695e-05 1.18119e-05 2.36509e-05 -1.4947e-06 -0.9946246048 0.0685640502
45601250.0 -0.9941830912 0.0676120172 2.28975e-05 -8.2868e-06 1.23722e-05 6.51606e-05 -0.9944164715 0.0712408784
47475000.0 -0.9940042122 0.0705179498 3.43282e-05 2.38512e-05 -1.22738e-05 1.46981e-05 -0.9940398065 0.073957037
49348750.0 -0.9939685683 0.0733420303 4.419e-06 -9.4087e-06 -1.63754e-05 2.70811e-05 -0.9941201756 0.0766281558
51222500.0 -0.9932667445 0.0762893775 -3.62964e-05 -5.7566e-06 -8.6356e-06 -7.1059e-06 -0.9933764352 0.0796025971
53096250.0 -0.992937086 0.0785186496 1.93357e-05 -1.70742e-05 3.18536e-05 -5.92865e-05 -0.993319769 0.0826845244
54970000.0 -0.9927587029 0.0812951606 -7.57873e-05 4.39483e-05 1.44578e-05 -3.2931e-05 -0.99333062 0.0853869255
56843750.0 -0.9927318391 0.083902555 3.25673e-05 -1.38109e-05 1.94323e-05 -8.1515e-06 -0.9928379544 0.0881330656
58717500.0 -0.992028644 0.086926088 -3.76773e-05 -4.37903e-05 -4.2494e-06 -5.73585e-05 -0.992097467 0.0908729348
60591250.0 -0.9920712382 0.0896996486 5.7213e-06 -5.05917e-05 -5.57509e-05 5.482e-07 -0.9921292944 0.0941709766
62465000.0 -0.9913273815 0.0918856314 2.30027e-05 -7.4086e-06 2.73483e-05 8.8322e-06 -0.9917441597 0.0967110717
64338750.0 -0.9910577562 0.0948703338 -2.92257e-05 -3.23514e-05 -3.00332e-05 -2.41104e-05 -0.991362694 0.0996665266
66212500.0 -0.9905569343 0.0974771091 4.5695e-05 -3.85863e-05 2.93892e-05 -1.99953e-05 -0.9909303715 0.1020778688
68086250.0 -0.9905314505 0.0999185843 3.5694e-05 -3.19569e-05 -3.79814e-05 -4.31138e-05 -0.9906970352 0.1052569607
69960000.0 -0.9902296569 0.102692536 3.15477e-05 -1.77685e-05 2.72963e-05 1.27803e-05 -0.9901194456 0.1081306454
71833750.0 -0.9895923384 0.1051150811 -3.7505e-06 -4.23396e-05 1.81543e-05 -9.9815e-06 -0.9901662155 0.1111209478
73707500.0 -0.9892704535 0.1077850848 -4.93743e-05 -3.69574e-05 -0.0001083656 3.1943e-06 -0.9896144303 0.1138394718
75581250.0 -0.9889631317 0.1105942912 2.08833e-05 -2.74345e-05 2.2863e-06 -3.55109e-05 -0.9892630536 0.1161185213
77455000.0 -0.9883537137 0.1134337453 4.17394e-05 -1.53438e-05 -5.8126e-06 -2.98184e-05 -0.9891104538 0.1192497135
79328750.0 -0.988320639 0.1160083306 -1.22461e-05 -3.6874e-05 7.9928e-06 -4.91352e-05 -0.9882125503 0.1220645834
81202500.0 -0.9881684611 0.1190381432 -3.17899e-05 -6.13982e-05 -1.65437e-05 -5.2796e-06 -0.9878972658 0.1249975685
83076250.0 -0.9871210366 0.1215751764 -5.98307e-05 -5.07596e-05 6.49827e-05 -4.7322e-06 -0.9876084204 0.1275753179
84950000.0 -0.9868430154 0.1238554402 -3.17877e-05 -3.43243e-05 6.151e-06 -3.24756e-05 -0.9870341779 0.1305371996
86823750.0 -0.9869476433 0.1268111582 -2.62881e-05 -6.68267e-05 -2.09465e-05 1.38573e-05 -0.9864750035 0.1330280584
88697500.0 -0.9862037755 0.1291587123 6.4436e-06 -9.26394e-05 -3.3177e-05 -6.04466e-05 -0.9863368645 0.1358323067
90571250.0 -0.9855214553 0.132159894 1.27788e-05 -8.98963e-05 1.27449e-05 -6.09519e-05 -0.9856779633 0.1387706288
92445000.0 -0.9855550789 0.1343868414 -7.042e-06 -2.55638e-05 -3.97354e-05 -4.196e-05 -0.9853249223 0.1415027287
94318750.0 -0.9849696471 0.1372514947 -1.74516e-05 -5.77885e-05 -9.33319e-05 -6.24299e-05 -0.984338004 0.1444135932
96192500.0 -0.9845562478 0.1395960169 1.98681e-05 -8.94598e-05 -4.54028e-05 -8.1618e-05 -0.9844637578 0.1470456903
98066250.0 -0.9840488627 0.1423494846 -9.342e-06 -3.78492e-05 -2.03709e-05 -9.33482e-05 -0.9840384487 0.1501169089
99940000.0 -0.983641476 0.1450099857 -2.14929e-05 -5.73747e-05 1.01557e-05 -0.0001164374 -0.9831521197 0.1528470979
101813750.0 -0.9832442306 0.1475671601 3.92843e-05 -0.0001146992 -3.3428e-05 -8.2765e-05 -0.9828005667 0.1554127496
103687500.0 -0.9826728972 0.1503165228 3.59092e-05 -6.90798e-05 -1.61809e-05 -8.22727e-05 -0.9822455954 0.158363395
105561250.0 -0.9819675621 0.1528451499 -2.86937e-05 -3.98463e-05 -1.11219e-05 -0.0001444163 -0.9818091572 0.1609830972
107435000.0 -0.9818331039 0.1554241608 -5.2208e-06 -0.0001443274 -6.57465e-05 -7.32047e-05 -0.9811850842 0.1635519263
109308750.0 -0.9814321246 0.1579083002 -1.59195e-05 -0.000121331 -1.78888e-05 -9.76382e-05 -0.9807827776 0.1661532977
111182500.0 -0.9806780137 0.1607312218 -9.07715e-05 -5.10511e-05 3.434e-06 -0.0001344906 -0.980340647 0.1694527639
113056250.0 -0.980253097 0.1631676116 -1.03227e-05 -0.0001309225 -2.8526e-06 -8.84167e-05 -0.9793948559 0.172076524
114930000.0 -0.9796860282 0.1660480672 -2.69512e-05 -0.0001452259 -2.26274e-05 -0.0001383517 -0.9792202448 0.1747849591
116803750.0 -0.9792689515 0.1685135778 -7.70019e-05 -9.23991e-05 -3.96014e-05 -0.0001714767 -0.9783184777 0.1774490984
118677500.0 -0.9785644573 0.1711600445 -9.2746e-06 -6.81551e-05 -1.22372e-05 -0.0001851916 -0.9776676403 0.1803063449
120551250.0 -0.9778973454 0.1736653397 -4.63405e-05 -0.0001146749 -8.0371e-05 -0.0001472993 -0.977126296 0.1828104177
122425000.0 -0.9775455554 0.176657134 -7.69983e-05 -0.0002326334 -4.74367e-05 -0.0001891528 -0.9765944227 0.1857526962
124298750.0 -0.9768707089 0.1788879703 -5.83743e-05 -0.0001753938 -6.80255e-05 -0.0001076475 -0.9759445485 0.1882137354
126172500.0 -0.976446617 0.1814375812 -4.7123e-05 -0.0001764048 -8.14311e-05 -0.0001773107 -0.9753649881 0.1910932592
128046250.0 -0.9756097326 0.1842607609 -4.36775e-05 -0.0002148356 -7.35112e-05 -0.000169701 -0.9746359742 0.1938746134
129920000.0 -0.9753247167 0.1867111938 -2.50427e-05 -0.0001896898 -3.80167e-05 -0.000190228 -0.9743175216 0.1964763998
131793750.0 -0.9747250221 0.1892597824 -3.00112e-05 -0.0002011616 -2.2017e-05 -0.0002146476 -0.9734875043 0.1992916715
133667500.0 -0.9743139767 0.1920083061 -4.18917e-05 -0.0001997041 -0.0001037505 -0.0002369524 -0.9730556466 0.2022167945
135541250.0 -0.9735168443 0.19474479 -7.03306e-05 -0.0002323531 -9.74609e-05 -0.0002466137 -0.9723392312 0.204975067
137415000.0 -0.9728566219 0.1970213114 -3.06513e-05 -0.0001838923 -9.04639e-05 -0.0002035342 -0.9717342539 0.2075597036
139288750.0 -0.9726070404 0.1998634057 3.4307e-06 -0.0002802014 -9.88175e-05 -0.0002229636 -0.9711588198 0.2103554466
141162500.0 -0.971711087 0.2023403604 -0.0001054424 -0.0002948138 -5.88407e-05 -0.0001888656 -0.970099805 0.2130980719
143036250.0 -0.9712986753 0.2049368287 -7.93608e-05 -0.0002649477 -0.0001331927 -0.0002795751 -0.9697065855 0.2157499636
144910000.0 -0.9706647749 0.2074684519 -0.0001076534 -0.0002492949 -9.80591e-05 -0.0002689953 -0.9691631353 0.2183879527
146783750.0 -0.9700395476 0.210263279 -0.0001337623 -0.0003020897 -0.0001435376 -0.000264039 -0.9683590966 0.2212747984
148657500.0 -0.9697088143 0.2129463476 -0.0001186167 -0.0002998817 -7.88855e-05 -0.000300527 -0.9675183895 0.2239422027
150531250.0 -0.9688846174 0.215542043 -0.0001059118 -0.0002956039 -7.44277e-05 -0.00029409 -0.9669927547 0.2266902849
152405000.0 -0.9685553686 0.2179615079 -4.99047e-05 -0.0002775073 -7.00251e-05 -0.000342957 -0.9661890867 0.2295298284
154278750.0 -0.9677021306 0.2205320859 -4.3416e-05 -0.0003491783 -0.0001643316 -0.0003181578 -0.9654368429 0.2322604133
156152500.0 -0.9668650628 0.2228990983 -0.0001007005 -0.0003356399 -0.0001158658 -0.0003531692 -0.9651359495 0.2351500061
158026250.0 -0.9662622337 0.225732203 -0.0001282444 -0.0003438368 -0.0001316449 -0.0003219333 -0.9638765322 0.2376191302
159900000.0 -0.9656478874 0.2284187919 -0.0001056681 -0.0003294622 -8.63695e-05 -0.0003424882 -0.9633876175 0.2402353704
161773750.0 -0.9652165281 0.2309502108 -0.0001547715 -0.000341882 -0.0001799443 -0.0003686278 -0.9623527403 0.2432272292
163647500.0 -0.9642072956 0.2337842688 -0.0001179609 -0.0003702025 -0.0001328045 -0.0003814562 -0.9618483883 0.2459740426
165521250.0 -0.9637210144 0.2363117089 -0.0001121868 -0.0003947889 -7.55381e-05 -0.000370125 -0.9613985347 0.2485298306
167395000.0 -0.9628416731 0.2387883372 -0.0001157098 -0.0004454085 -0.0001666119 -0.0004243999 -0.9603867614 0.2511746903
169268750.0 -0.9623930601 0.2411985112 -0.000183315 -0.0004196399 -9.00485e-05 -0.00044388 -0.9594761462 0.2537996505
171142500.0 -0.9616369511 0.2439100476 -0.0001790072 -0.0003672048 -0.0001545674 -0.0003892375 -0.9588114838 0.2570507251
173016250.0 -0.9608592121 0.2464718899 -0.0002261258 -0.0004708165 -0.0001955645 -0.0004719676 -0.9582670454 0.2596017231
174890000.0 -0.9600340447 0.2487945942 -0.0001835438 -0.0004753271 -0.0001687925 -0.0004632563 -0.957296978 0.2621069004
176763750.0 -0.959318646 0.2514752458 -0.0002279181 -0.0004948553 -0.000196187 -0.0004702529 -0.9567535493 0.2648773054
178637500.0 -0.9588122072 0.2542505799 -0.000173745 -0.000480447 -0.000168419 -0.0005033748 -0.9556525829 0.2674682476
180511250.0 -0.9580800987 0.256788975 -0.0002185696 -0.000580617 -0.0002184807 -0.0005607003 -0.9548294927 0.2703378811
182385000.0 -0.9575284979 0.2594050405 -0.0002690085 -0.0005588104 -0.0002559729 -0.000504339 -0.9541057011 0.2729678634
184258750.0 -0.9564512753 0.2619629041 -0.0002519756 -0.0006127993 -0.0002322096 -0.0005411582 -0.9532262664 0.2758445402
186132500.0 -0.9557443 0.2641233828 -0.0002313895 -0.0005980386 -0.0002553124 -0.0005850686 -0.9525014684 0.278692901
188006250.0 -0.9550512805 0.2670891834 -0.000256126 -0.0006364726 -0.0002544405 -0.0006187247 -0.9516599783 0.2812932272
189880000.0 -0.9543736856 0.2693683095 -0.0002111319 -0.000606217 -0.0002574595 -0.0006498052 -0.951017523 0.2838908232
191753750.0 -0.9533399234 0.2720816382 -0.0002285581 -0.0005955189 -0.0002332169 -0.0006718349 -0.9497993399 0.286779047
193627500.0 -0.9528380598 0.274566672 -0.0002510372 -0.0006917306 -0.0002672896 -0.0006176099 -0.9491992821 0.2895136159
195501250.0 -0.9519817099 0.2772767745 -0.0002060707 -0.0006953287 -0.0003400562 -0.0007221137 -0.9484714586 0.2919852611
197375000.0 -0.951216163 0.2799060593 -0.0003107436 -0.0007208057 -0.0002881945 -0.0007117956 -0.9474408303 0.2946735209
199248750.0 -0.9506281369 0.2825613031 -0.0003003242 -0.0006980417 -0.0002393694 -0.0007524817 -0.9463032658 0.2978589783
201122500.0 -0.9493866399 0.2848777048 -0.0002863093 -0.0007716904 -0.000248762 -0.0007448857 -0.9456779479 0.3002985795
202996250.0 -0.9489550337 0.2876704476 -0.000260343 -0.0007471362 -0.000337846 -0.0007737989 -0.9445603874 0.3029072894
204870000.0 -0.9480408519 0.2900531916 -0.0003363646 -0.0007327962 -0.0003797472 -0.0007965405 -0.9437983449 0.305947121
206743750.0 -0.9473386736 0.2929425281 -0.0002918239 -0.0007874774 -0.0002752005 -0.000801019 -0.9425989459 0.3084175756
208617500.0 -0.9463253913 0.2949185167 -0.0003992512 -0.0008198643 -0.000365014 -0.0007706151 -0.9415099199 0.3113273504
210491250.0 -0.9459347213 0.2975647464 -0.000331162 -0.0008933523 -0.000321877 -0.0008298906 -0.9406137991 0.3138489626
212365000.0 -0.9441866653 0.3001698064 -0.0003590417 -0.0008848749 -0.0003257686 -0.0008884272 -0.9401150284 0.3164814364
214238750.0 -0.9434912001 0.3026821371 -0.0003231849 -0.0009148467 -0.000341911 -0.0008934765 -0.938649656 0.3189030856
216112500.0 -0.942937668 0.3053603287 -0.0004079856 -0.0010246605 -0.0003539278 -0.0009627563 -0.9380369459 0.3217827247
217986250.0 -0.9419894581 0.3078407758 -0.000412501 -0.0009698669 -0.0004031012 -0.0010258228 -0.9368648058 0.3241965874
219860000.0 -0.9410557479 0.3104964311 -0.0004641485 -0.0010637156 -0.0004554446 -0.0010821109 -0.9362333105 0.3269135043
221733750.0 -0.9401947959 0.3129053056 -0.0004733092 -0.0010745291 -0.0004473538 -0.0010550313 -0.9348104725 0.329615928
223607500.0 -0.9391570603 0.315709457 -0.0004801201 -0.0010683655 -0.0005062217 -0.0010740976 -0.9341932431 0.3325656447
225481250.0 -0.9380245691 0.3180111153 -0.0004872121 -0.0011327088 -0.000498708 -0.0010670976 -0.9331237598 0.3350926437
227355000.0 -0.9373956197 0.3206970734 -0.0005026977 -0.001159481 -0.0004628373 -0.0011112699 -0.9318606341 0.3378998608
229228750.0 -0.9367090442 0.3232520601 -0.0004717822 -0.0011175138 -0.0004708278 -0.0011553012 -0.9308007428 0.340236923
231102500.0 -0.9358111452 0.3255852536 -0.0005400456 -0.0012388859 -0.0004894538 -0.0011723049 -0.9300158276 0.342998879
232976250.0 -0.934813178 0.3279879452 -0.0005356113 -0.0011358744 -0.0005579078 -0.0011899895 -0.9287168218 0.3453781674
234850000.0 -0.9337240555 0.3307373306 -0.0005558121 -0.0012405342 -0.0005847953 -0.0011780522 -0.9278448818 0.3481641132
236723750.0 -0.9325836268 0.3329667815 -0.0006232496 -0.0012088636 -0.0005866601 -0.0012714133 -0.926702436 0.3509273905
238597500.0 -0.93205473 0.3357969447 -0.0005969126 -0.0013028787 -0.0006190011 -0.0013028547 -0.9256471485 0.3534806946
240471250.0 -0.9308984109 0.3383337237 -0.0006420751 -0.001313021 -0.0006278502 -0.0013037471 -0.9246053319 0.3561507879
242345000.0 -0.929660768 0.3404976354 -0.0006595197 -0.0013251301 -0.0005987491 -0.0013208661 -0.9236539165 0.3585000776
244218750.0 -0.9287220573 0.343601681 -0.000671182 -0.001364142 -0.0006237806 -0.0013602534 -0.9223829389 0.3613200771
246092500.0 -0.9281578981 0.3460824928 -0.0006963892 -0.0013660587 -0.0007178678 -0.0013420369 -0.9214327686 0.3636058209
247966250.0 -0.9269468729 0.3483954051 -0.0006911129 -0.0014013241 -0.0007177065 -0.0014410472 -0.9201871739 0.366479514
249840000.0 -0.925762718 0.3510079395 -0.0007462436 -0.0014331378 -0.0007347645 -0.0014778407 -0.918970045 0.3692021569
251713750.0 -0.9246988294 0.3533809944 -0.0007261719 -0.0015057388 -0.0007548667 -0.0014981224 -0.9176599747 0.3718800116
253587500.0 -0.923931529 0.3554579299 -0.0007699423 -0.0014880203 -0.0007819276 -0.0015491022 -0.916775879 0.3745067532
255461250.0 -0.9230019834 0.358295822 -0.0008283307 -0.0015858015 -0.0007852909 -0.0015524154 -0.9156676624 0.3769430998
257335000.0 -0.9218651958 0.3608000838 -0.0007895368 -0.0015501662 -0.0008279096 -0.0016706969 -0.9144905357 0.3795449568
259208750.0 -0.9207534686 0.3634587932 -0.000811304 -0.0016068782 -0.0008506186 -0.0016448316 -0.9133635582 0.3819518692
261082500.0 -0.9196948249 0.3658418293 -0.0008641746 -0.0016933184 -0.0008884789 -0.001682081 -0.9121673359 0.3846628561
262956250.0 -0.9185973466 0.3684429764 -0.0008575189 -0.001744618 -0.0008514123 -0.0016901088 -0.9108388403 0.3875698936
264830000.0 -0.9172826862 0.3708906318 -0.0009012606 -0.0016825941 -0.0009759921 -0.0017455973 -0.9097907004 0.3899466962
266703750.0 -0.9163599311 0.373250657 -0.0009138129 -0.0018380884 -0.0009655266 -0.0017622605 -0.9087296519 0.3921994889
268577500.0 -0.9153329227 0.3756136587 -0.0009923938 -0.0018238271 -0.0009850211 -0.0018162379 -0.9072606356 0.394924054
270451250.0 -0.9141502506 0.3782621121 -0.0009712418 -0.001825946 -0.0009922674 -0.0018619267 -0.9066064439 0.3975988591
272325000.0 -0.9133226902 0.3806486925 -0.0009846678 -0.0019166603 -0.0010567598 -0.0019206745 -0.9049452587 0.4001904528
274198750.0 -0.9121637769 0.3830205223 -0.0010191586 -0.0019027765 -0.0010576584 -0.001977603 -0.9038961436 0.402625395
276072500.0 -0.9111262672 0.3855525411 -0.0010881762 -0.0019527714 -0.0010813488 -0.0020403338 -0.9025997559 0.405020995
277946250.0 -0.909698226 0.3877334583 -0.0011121465 -0.0019970839 -0.0010503762 -0.0020749322 -0.9012500576 0.4076806901
279820000.0 -0.90890321 0.3904021366 -0.0012224728 -0.002101149 -0.0010952288 -0.0020596066 -0.9001224332 0.4101823632
281693750.0 -0.9076195783 0.3927726502 -0.0011127207 -0.0020682081 -0.0011772721 -0.0021658494 -0.8988656278 0.4125645091
283567500.0 -0.9067851059 0.3953029486 -0.0012090441 -0.002233709 -0.0012022829 -0.0021615152 -0.8975293959 0.4152905922
285441250.0 -0.905767668 0.3978340477 -0.0012333809 -0.0021970361 -0.0012110876 -0.0021933474 -0.8964498955 0.4177529834
287315000.0 -0.9043351753 0.4000634867 -0.0012814703 -0.0022536708 -0.0012503175 -0.0022866762 -0.8952024562 0.4200512566
289188750.0 -0.9036189486 0.4027671379 -0.0012603513 -0.0022838387 -0.0012871814 -0.0022317743 -0.8940927163 0.4226700062
291062500.0 -0.9025675927 0.4050440024 -0.0013254812 -0.0024190616 -0.0012602664 -0.0023094195 -0.892399431 0.4251255445
292936250.0 -0.9009483363 0.4075411681 -0.0014270678 -0.002416588 -0.0013959637 -0.0023978869 -0.8914026602 0.4275769856
294810000.0 -0.8999176302 0.4099587345 -0.0013886274 -0.0024565054 -0.0013769355 -0.0024689909 -0.8901209658 0.4303624663
296683750.0 -0.8985219138 0.4121438789 -0.0014217169 -0.0025172866 -0.0014163827 -0.002432074 -0.8889248847 0.432754967
298557500.0 -0.8979174381 0.4144624944 -0.0014943601 -0.0025446355 -0.0014446887 -0.0025517235 -0.8873955182 0.4351387913
300431250.0 -0.8966929254 0.4171177731 -0.0015089229 -0.0025596947 -0.0015491824 -0.0025928541 -0.8861938107 0.4379602343
302305000.0 -0.895287492 0.4195889518 -0.001564404 -0.0026024246 -0.0015438285 -0.002639443 -0.884888189 0.4402464627
304178750.0 -0.8941490627 0.4220150596 -0.0015695283 -0.00263545 -0.0015827348 -0.0026384823 -0.8836682426 0.4427361774
306052500.0 -0.8930914263 0.4243104752 -0.0015308432 -0.0027575607 -0.0016374311 -0.0027396933 -0.8824190509 0.4451396297
307926250.0 -0.8919446985 0.4267510749 -0.0017168145 -0.0027996065 -0.0016521481 -0.0027928156 -0.8807979086 0.4477201325
309800000.0 -0.8905342045 0.4295447658 -0.0017128843 -0.0028122631 -0.0017530764 -0.0028452132 -0.8794205867 0.4500618719
311673750.0 -0.8894526496 0.4317025515 -0.0017096988 -0.0028632024 -0.0017626095 -0.0028807869 -0.8781622972 0.453186976
313547500.0 -0.8881552217 0.4341049366 -0.001807554 -0.0029849463 -0.0017693165 -0.0029172396 -0.8767786907 0.4558263893
315421250.0 -0.8869630602 0.4365155854 -0.0018223959 -0.0029933234 -0.0017959727 -0.0030089283 -0.8757439723 0.4576763383
317295000.0 -0.8857001269 0.4387212348 -0.0019179223 -0.0030689227 -0.0019211934 -0.0030521382 -0.8740865874 0.4604446879
319168750.0 -0.8845953851 0.4412671164 -0.0019110829 -0.0031508668 -0.0019308103 -0.0031032745 -0.8730536915 0.463181302
321042500.0 -0.8830992835 0.4433762087 -0.0019336371 -0.0032139688 -0.0019092358 -0.0031804966 -0.8713905674 0.4654835461
