!	Fieldfox Controller
!	Chapman University - Class ENG398
!	Introduction to RF - DMG (2024)
! 
!Created with skrf (http://scikit-rf.org).
# Hz S RI R 50.0 
!freq ReS11 ImS11 ReS21 ImS21 ReS12 ImS12 ReS22 ImS22
10000000.0 0.0112634238 0.0561022786 0.9883203559 -0.0808196749 0.9884802843 -0.0810254819 0.0112096367 0.0561892924
11873750.0 0.013506308 0.0661738238 0.9861825563 -0.0956377173 0.9859996968 -0.0953754476 0.0134276958 0.0664485915
13747500.0 0.0159387992 0.0761185715 0.9836013406 -0.1101518894 0.9834423711 -0.1100589493 0.0158210524 0.0763078994
15621250.0 0.0187797978 0.0859429646 0.9802861783 -0.1245954144 0.9803435331 -0.124831309 0.0187035512 0.0862120835
17495000.0 0.0217485918 0.0957420038 0.9771075487 -0.1387998788 0.9770568837 -0.1391487845 0.0216654377 0.095946706
19368750.0 0.0250468055 0.1051659135 0.9735111936 -0.1529685626 0.9737191036 -0.1529154442 0.0248482598 0.1054507968
21242500.0 0.0286229048 0.1146373568 0.9697979826 -0.1669524442 0.9698704974 -0.1671363514 0.0284184785 0.1148638187
23116250.0 0.0324763214 0.123800593 0.9658323412 -0.1810889965 0.9656267048 -0.1808038255 0.0322300628 0.12415507
24990000.0 0.0365671774 0.1329604605 0.9610591428 -0.1943653838 0.9614187645 -0.1949395695 0.0363367326 0.1332971759
26863750.0 0.0408429916 0.1419460113 0.9569372948 -0.2083498885 0.9568758248 -0.2079993221 0.0405786397 0.1422245426
28737500.0 0.0453738699 0.1505210064 0.95209285 -0.2214910298 0.9516665206 -0.2215653917 0.0451227803 0.1509061742
30611250.0 0.0500338497 0.159206633 0.9469839369 -0.2346646811 0.9469257927 -0.2347258312 0.0497550517 0.159619588
32485000.0 0.0550989884 0.1675898504 0.9415056867 -0.2477144714 0.9414385297 -0.2476711159 0.0547266228 0.1680755363
34358750.0 0.0601423552 0.1758557348 0.9359070875 -0.2604906441 0.9352924643 -0.2604377799 0.0598854945 0.1762736508
36232500.0 0.0657104727 0.1838519238 0.9303010839 -0.2731312032 0.9298574113 -0.2733633345 0.0652781623 0.1842349664
38106250.0 0.0712011832 0.1917896285 0.9241530003 -0.285746623 0.9241925721 -0.2857576657 0.07091382 0.1921603937
39980000.0 0.0771022703 0.199453483 0.9178843164 -0.2976481414 0.9173865061 -0.2980122779 0.0765234905 0.1998729874
41853750.0 0.0829769327 0.2068979861 0.9116664503 -0.3098060784 0.9114893555 -0.310027849 0.0826060676 0.2074447185
43727500.0 0.089061595 0.214225203 0.9049974113 -0.3216481889 0.9047166722 -0.3217103589 0.0885472746 0.2146415854
45601250.0 0.0953691167 0.2213254756 0.8980287127 -0.3333357365 0.898018987 -0.3334450485 0.0948762314 0.221606835
47475000.0 0.1019018165 0.2282444258 0.8910831054 -0.3452999069 0.8907975581 -0.3449119547 0.1012935637 0.2285693036
49348750.0 0.1084260979 0.2348673805 0.8838827231 -0.3559066102 0.883135767 -0.35626515 0.1078435212 0.2352642331
51222500.0 0.1151893973 0.2412798136 0.8764170686 -0.3671806629 0.8764875833 -0.3675042039 0.1144949043 0.2417801589
53096250.0 0.1221055425 0.2474908098 0.8691505441 -0.3779052946 0.8685812552 -0.3780819485 0.1215116394 0.247816503
54970000.0 0.1291066379 0.2534984292 0.8616806753 -0.38888345 0.8608084692 -0.3887803001 0.1283989289 0.2539215357
56843750.0 0.1363708959 0.2592654344 0.8538987099 -0.3988741141 0.8533041191 -0.3993833347 0.1355463987 0.2597682102
58717500.0 0.1436332495 0.264825506 0.8458314691 -0.4092378857 0.8452749173 -0.4092058453 0.1426437235 0.2653779036
60591250.0 0.1509452899 0.2702417439 0.837787519 -0.419064893 0.8373015971 -0.4192424511 0.1500921677 0.2706040962
62465000.0 0.1583355799 0.2751569182 0.8295430065 -0.4290708661 0.8293621535 -0.4290738353 0.1575166523 0.2757520628
64338750.0 0.1659979355 0.2799710819 0.8213480852 -0.4382610694 0.8208879426 -0.4385741666 0.1650230812 0.2808196611
66212500.0 0.1736150037 0.2847075719 0.8131030574 -0.4473672665 0.8126886618 -0.4478870225 0.1726046104 0.2855014337
68086250.0 0.1812871184 0.2891399282 0.8043688732 -0.456308655 0.80423695 -0.4569177063 0.1803763392 0.2898246804
69960000.0 0.1890021107 0.2933858072 0.7959419312 -0.4658691738 0.7955897458 -0.466015382 0.1880109965 0.294287126
71833750.0 0.1968127312 0.2974638846 0.7871952055 -0.4740644096 0.7867304776 -0.4741842116 0.1959247085 0.298276778
73707500.0 0.2048630741 0.3011875992 0.7785773757 -0.4824481167 0.7780422076 -0.4829373762 0.2038593093 0.3021704178
75581250.0 0.2128256258 0.3047289353 0.7697531969 -0.4909598718 0.7694379305 -0.4907811501 0.2118645724 0.3057343949
77455000.0 0.2208162807 0.30813287 0.7607980297 -0.498609162 0.760397357 -0.4989284471 0.2198399267 0.309041846
79328750.0 0.2287941165 0.3112959534 0.7518213808 -0.5066149249 0.7514165645 -0.5066335011 0.2277537361 0.3121446143
81202500.0 0.2369967297 0.3139425522 0.7431919763 -0.5141103918 0.7423613096 -0.5145533914 0.2357781852 0.3152941731
83076250.0 0.2451375908 0.316811328 0.7336122129 -0.5215191858 0.733097683 -0.5215520402 0.2439783656 0.3178493049
84950000.0 0.2531869685 0.3192028041 0.7247659005 -0.5284740605 0.7242379943 -0.5289867909 0.2518893036 0.3204367692
86823750.0 0.2614485345 0.3216125036 0.7154346676 -0.5358107178 0.7155005861 -0.535894123 0.2601137643 0.3228072465
88697500.0 0.2696139625 0.3236500562 0.7065901875 -0.5421293971 0.70584085 -0.5422643023 0.2681741618 0.3248979441
90571250.0 0.2777166043 0.3254992398 0.6975533921 -0.5489694437 0.6970082863 -0.548891029 0.2762562362 0.3267395228
92445000.0 0.2858437472 0.3271931527 0.6881381296 -0.5550796823 0.6877971279 -0.5551199827 0.2844339014 0.3285974405
94318750.0 0.2938892712 0.3287530004 0.6790417206 -0.561270518 0.6781366806 -0.5614152091 0.2923413167 0.3299540916
96192500.0 0.3021141729 0.3299735759 0.6697441136 -0.5673195423 0.6694240036 -0.5671759863 0.300523428 0.331383893
98066250.0 0.3102110465 0.3309769137 0.6606631487 -0.5730448475 0.6600664687 -0.5728352279 0.3086291987 0.3325137576
99940000.0 0.318463489 0.331982749 0.6510336652 -0.578685707 0.6508101365 -0.578486054 0.316535836 0.3333370913
101813750.0 0.3264780128 0.3326165348 0.6421187431 -0.5840991468 0.6417006645 -0.5838524791 0.3247755413 0.3342149022
103687500.0 0.3342566875 0.3331735003 0.6325400397 -0.5894025924 0.6328244393 -0.5891801171 0.3327584445 0.334650787
105561250.0 0.342336697 0.3333109975 0.6234355066 -0.5940190449 0.6234067012 -0.5939213749 0.3404772438 0.3352345643
107435000.0 0.3502902951 0.3335820554 0.6142003098 -0.5991604237 0.6144329981 -0.5993553839 0.3484577078 0.3353918622
109308750.0 0.3580588481 0.3336421078 0.6050812495 -0.6037581541 0.6050322922 -0.6037681154 0.3562221778 0.3355876774
111182500.0 0.3658706213 0.333280077 0.5961462864 -0.6080792646 0.5960814435 -0.608161805 0.3642257055 0.3353582012
113056250.0 0.3735493787 0.3330192577 0.586856649 -0.6125383663 0.5869949432 -0.6123825521 0.3719251912 0.3349876215
114930000.0 0.3815554508 0.3323597116 0.5781506527 -0.6165862684 0.5778682544 -0.6166391295 0.3795632724 0.3347202444
116803750.0 0.3891313989 0.3318426166 0.5687342019 -0.6204269455 0.5688245861 -0.6205308276 0.3872236502 0.3341132061
118677500.0 0.3967023725 0.3309637466 0.559858118 -0.6246727853 0.5597970516 -0.6243891593 0.3947864562 0.3332403795
120551250.0 0.4042808139 0.3300115658 0.5509674277 -0.6281113774 0.5507307668 -0.6280659988 0.4021947733 0.3322480955
122425000.0 0.4118022117 0.328588704 0.5415725231 -0.6318153418 0.5418387183 -0.6317702356 0.409569895 0.3313264235
124298750.0 0.4191841471 0.3274784767 0.5330544516 -0.6353749311 0.5333671584 -0.6353225906 0.4170298939 0.330092385
126172500.0 0.4264950237 0.3261062121 0.5239474942 -0.6385111884 0.5242105256 -0.6385071017 0.4244687449 0.3285865571
128046250.0 0.4338038779 0.3245419087 0.5153318819 -0.6415654965 0.5153503621 -0.641571174 0.4316168547 0.3271922641
129920000.0 0.4408267891 0.3228153526 0.5063822168 -0.6444361088 0.5067667717 -0.6446812666 0.4388292182 0.3255290257
131793750.0 0.448069419 0.3210862502 0.4979093866 -0.6473428689 0.4979572075 -0.647144035 0.4457462094 0.3239229426
133667500.0 0.4550582542 0.3192922101 0.4888827046 -0.6502329106 0.4893827893 -0.6499943376 0.4531145818 0.321832326
135541250.0 0.4620652111 0.3169649436 0.480739612 -0.6522035421 0.4807395689 -0.6526531995 0.4599508873 0.3198760481
137415000.0 0.4688406145 0.3147865858 0.4719240503 -0.6549898784 0.4720240016 -0.6551318048 0.4669926052 0.3176982218
139288750.0 0.4754435212 0.3123783875 0.463065326 -0.6572075445 0.4636915746 -0.6570931489 0.4736745813 0.315505085
141162500.0 0.4823580442 0.3100252902 0.4547725325 -0.6596532545 0.4552699623 -0.6597220837 0.4802940375 0.3128597896
143036250.0 0.4890917471 0.3074813746 0.4463713838 -0.6618394449 0.4465479008 -0.6619045142 0.486767441 0.3103822126
144910000.0 0.4957400497 0.3049373462 0.4382442498 -0.6640651099 0.4387956459 -0.6638049849 0.4934136491 0.308047141
146783750.0 0.5021396393 0.3017215888 0.4299463684 -0.6656413181 0.4303434119 -0.6653762843 0.500015728 0.3050837092
148657500.0 0.5082222296 0.2991182019 0.4215415257 -0.6674257162 0.4222298609 -0.6676597783 0.5062612801 0.3022232221
150531250.0 0.514599834 0.2960668973 0.4136776174 -0.6690900412 0.4140682531 -0.6692519916 0.5126018427 0.2994649702
152405000.0 0.5209386477 0.2928980116 0.4053550819 -0.6704615603 0.4055749643 -0.6707486169 0.5186089312 0.296450999
154278750.0 0.5269744237 0.2897785401 0.3972834919 -0.6723471348 0.3975038791 -0.6720884773 0.5246980732 0.293288269
156152500.0 0.5331300297 0.2866468189 0.389413375 -0.6735536009 0.3895798687 -0.673520933 0.5306610871 0.2899759982
158026250.0 0.538854157 0.2830254886 0.3814134302 -0.6749474442 0.3817329413 -0.6747287866 0.5368073639 0.286867453
159900000.0 0.5448776762 0.2797722367 0.3735491504 -0.6760692526 0.374105985 -0.676255428 0.5424606282 0.2835280882
161773750.0 0.5504559616 0.276422387 0.365795535 -0.6771150945 0.3656930409 -0.6772007454 0.5481612971 0.2800976476
163647500.0 0.5559516068 0.2723987166 0.3580332605 -0.6784055677 0.3582829792 -0.678663356 0.5537843961 0.2762647292
165521250.0 0.5616408581 0.2690445285 0.3506564193 -0.6793528999 0.3504849135 -0.6792871076 0.5594531018 0.2728564964
167395000.0 0.5670699766 0.2652033995 0.3428237264 -0.680122398 0.3430376784 -0.6802372047 0.5649359191 0.2689138779
169268750.0 0.5724424764 0.2613901669 0.3349540712 -0.6811392973 0.3355964973 -0.6810968686 0.5700567614 0.2653565942
171142500.0 0.5774423782 0.2574761167 0.3277766148 -0.6815487141 0.3278228363 -0.6815697408 0.5753958023 0.26128749
173016250.0 0.5828012865 0.2532718388 0.3201219749 -0.682326455 0.3201996107 -0.6827256351 0.5805990223 0.257194317
174890000.0 0.5877901756 0.248974846 0.3126674111 -0.6831717545 0.3129985411 -0.6833066964 0.5856412867 0.2534184999
176763750.0 0.5926951801 0.2451284412 0.3057267668 -0.6837510318 0.3057340505 -0.6838336156 0.5907873179 0.2492877509
178637500.0 0.5977687195 0.2408849777 0.2981171409 -0.6839251487 0.2984829203 -0.684194657 0.5956609142 0.2453019839
180511250.0 0.6025919692 0.2365987226 0.2909882706 -0.6845669941 0.2909954414 -0.6847207739 0.6005614692 0.2408286114
182385000.0 0.6074129986 0.2321078293 0.2836054155 -0.6849154153 0.2839833976 -0.6852048112 0.6053215621 0.2364451639
184258750.0 0.611642443 0.2276431549 0.2770517831 -0.6853743624 0.2768163996 -0.6852341936 0.6097351152 0.2323229449
186132500.0 0.6163299935 0.2232170596 0.2694063895 -0.6856676465 0.269932896 -0.6856291667 0.6145012295 0.2276947527
188006250.0 0.6207717634 0.2186718123 0.2626943741 -0.685683122 0.2628749256 -0.685553879 0.6187705546 0.2230838587
189880000.0 0.6252460169 0.2141471973 0.2557658178 -0.6859858614 0.2559912035 -0.6858901721 0.6232730994 0.2187238649
191753750.0 0.6294121267 0.2094735836 0.2489788219 -0.6859681454 0.2494547564 -0.686056104 0.6273171069 0.2140658731
193627500.0 0.6337020504 0.2048754792 0.2423785395 -0.6859094097 0.2421894636 -0.6862567016 0.6316277964 0.2092070192
195501250.0 0.6375170907 0.2001040288 0.2354452213 -0.6861708073 0.2358200407 -0.6860967045 0.6356574562 0.2048850588
197375000.0 0.6415155838 0.1952214223 0.2286724984 -0.6862049356 0.228657152 -0.6860852473 0.6395687746 0.1999334348
199248750.0 0.645321773 0.1903096769 0.2222640646 -0.6860706353 0.2221041166 -0.6861526104 0.643662417 0.1950088719
201122500.0 0.6492219172 0.1856613494 0.2155716286 -0.6857731075 0.2157341599 -0.6860234922 0.6472305927 0.1903685306
202996250.0 0.6529409699 0.1807741936 0.2091331238 -0.6857546196 0.2090709765 -0.6858730694 0.6510286452 0.1853954982
204870000.0 0.6566057728 0.1758839724 0.202467548 -0.6858607893 0.2028076932 -0.6855156604 0.6546717322 0.1805213494
206743750.0 0.6602051037 0.1706875971 0.1961783664 -0.6854332576 0.1962456433 -0.6852928008 0.6582653234 0.1754458657
208617500.0 0.6633096066 0.1657651951 0.1898214605 -0.6852418562 0.1899445821 -0.6850655917 0.6616922667 0.1705611388
210491250.0 0.6670366164 0.1605355342 0.183417414 -0.6848820583 0.1835863023 -0.6848257904 0.6650618686 0.1655733431
212365000.0 0.6700064854 0.155546344 0.1770386376 -0.6844724446 0.1772083581 -0.6844427404 0.6683614215 0.1605561179
214238750.0 0.6730475218 0.1503770313 0.1709244263 -0.6843835522 0.1710753257 -0.6839884681 0.6714434271 0.1554734713
216112500.0 0.6763723582 0.1451848193 0.1649862342 -0.6841195958 0.1649443533 -0.6836486985 0.6746911089 0.1505810659
217986250.0 0.6793087445 0.1401072037 0.1589237788 -0.6835105936 0.1588352483 -0.6833063137 0.6775887554 0.1453581699
219860000.0 0.6822205746 0.135003942 0.1527740212 -0.683207364 0.152849976 -0.6827944067 0.6804172771 0.1403524013
221733750.0 0.6849673918 0.1296963326 0.1463737208 -0.6824583438 0.14689058 -0.6826322791 0.6834657758 0.1349450589
223607500.0 0.6880022602 0.1246933675 0.140649811 -0.6818958045 0.1408420557 -0.6817440991 0.6862750733 0.129686593
225481250.0 0.690528431 0.1190321048 0.1347912858 -0.6814643616 0.1348552037 -0.681207606 0.6890434312 0.1244981875
227355000.0 0.6931537827 0.1138924953 0.1286946017 -0.6809163344 0.1289470476 -0.6807754414 0.6914460117 0.1192506015
229228750.0 0.6955667876 0.1084217617 0.1230265665 -0.6805072322 0.1229734342 -0.6801917584 0.6938943208 0.1139964739
231102500.0 0.6979014958 0.1034187646 0.1170305817 -0.6796028595 0.1172761945 -0.6796729391 0.6965068646 0.1086879729
232976250.0 0.7000119125 0.0980931911 0.1112785577 -0.6791927049 0.1115409817 -0.678977764 0.6986599944 0.1033526488
234850000.0 0.7023447143 0.0926112927 0.1053679143 -0.6785841271 0.1056318951 -0.6787283661 0.701055677 0.0982066178
236723750.0 0.7046587951 0.0873509096 0.0998874541 -0.6783723842 0.1001231659 -0.6778378009 0.7033351236 0.0926437316
238597500.0 0.7066181046 0.0817169039 0.0940249123 -0.6774923214 0.0943576498 -0.677370116 0.7054505524 0.0875573597
240471250.0 0.7087881935 0.0765176057 0.0884941497 -0.6768849658 0.0888279086 -0.6766274052 0.7077470462 0.0820132305
242345000.0 0.7104753088 0.0708332586 0.0830285918 -0.6761320567 0.0832253974 -0.6759772885 0.709507854 0.0766940009
244218750.0 0.7123539517 0.0654482279 0.077760836 -0.6756022754 0.0776077956 -0.6752550033 0.7113139419 0.0712622394
246092500.0 0.7143606712 0.0601060802 0.0721432999 -0.6748217999 0.0722938601 -0.6745948363 0.7132709608 0.0661070132
247966250.0 0.7157081674 0.0544672075 0.0665191308 -0.6739290926 0.0667315016 -0.6741279608 0.715185574 0.0604776235
249840000.0 0.7175145749 0.0492763931 0.0610234485 -0.6735856554 0.0612503271 -0.6733366072 0.7166320538 0.0551012718
251713750.0 0.7188904092 0.0437042328 0.0553986107 -0.6725706464 0.0555677299 -0.6724390735 0.7182467456 0.0494671481
253587500.0 0.7204698849 0.0379484753 0.0500082337 -0.6716305711 0.0508153477 -0.6716249725 0.7195958646 0.044206834
255461250.0 0.7218433798 0.0323222851 0.0446362322 -0.6713729213 0.0453269404 -0.6710561237 0.7213730946 0.0390766489
257335000.0 0.7231301403 0.0269762056 0.0396470584 -0.6702641056 0.0396263697 -0.6703373566 0.7221928924 0.0330166729
259208750.0 0.7240684954 0.0217030093 0.03390629 -0.6696584596 0.0345071129 -0.6696757566 0.723710551 0.0279669007
261082500.0 0.7254305888 0.0159368055 0.0290228164 -0.6688182038 0.028937143 -0.6687746111 0.7249284497 0.0224630203
262956250.0 0.7262854816 0.0104512315 0.0234802166 -0.668134762 0.0238200601 -0.668133255 0.7259241108 0.017017908
264830000.0 0.7272234035 0.0047707083 0.0182824404 -0.6672472963 0.0186927042 -0.667012626 0.7269736176 0.0114781213
266703750.0 0.7282683914 -0.0004864686 0.0129609638 -0.6666090854 0.0134974057 -0.6666643972 0.7280340402 0.0063121228
268577500.0 0.729023765 -0.0061469069 0.0079212152 -0.6659557058 0.0083120576 -0.6658067868 0.7288708296 0.0004672954
270451250.0 0.7299462668 -0.0117205374 0.0028950886 -0.664720426 0.0030204363 -0.6652204295 0.7295365392 -0.0052397623
272325000.0 0.7302943393 -0.0170753525 -0.0023876487 -0.6641094037 -0.0020638868 -0.6641337256 0.7303200592 -0.0103331841
274198750.0 0.7308206211 -0.0226627921 -0.0076829066 -0.6630792665 -0.007204837 -0.6633808877 0.7313039601 -0.0156336292
276072500.0 0.7313876083 -0.0283612494 -0.0127750602 -0.6622116723 -0.0124458723 -0.6625857904 0.7314773677 -0.0215877436
277946250.0 0.7319877611 -0.0339170269 -0.0176114474 -0.6617089277 -0.0175366827 -0.6616525332 0.7320393342 -0.0271823754
279820000.0 0.7320896813 -0.0393989687 -0.0227566411 -0.6606440464 -0.0226816193 -0.6611683886 0.732457037 -0.0324854768
281693750.0 0.7324906887 -0.045025806 -0.0280518946 -0.6596896344 -0.0277995357 -0.6603212498 0.732746357 -0.0381985349
283567500.0 0.7325015938 -0.0505041619 -0.0329278561 -0.659257487 -0.0326128987 -0.6593678046 0.7330641755 -0.0438350486
285441250.0 0.7325547588 -0.0559569103 -0.0377969218 -0.6581043758 -0.0378436474 -0.6582718226 0.7329726267 -0.0489882839
287315000.0 0.7325823183 -0.0614673089 -0.0430831329 -0.6573251841 -0.0430794937 -0.6578456844 0.7332738429 -0.0546057386
289188750.0 0.7324984591 -0.0669791522 -0.0482927612 -0.6565705839 -0.0480869302 -0.6565939081 0.7329761738 -0.0601774994
291062500.0 0.7326405425 -0.0728567554 -0.0532717083 -0.6556407028 -0.0527636069 -0.6560205591 0.7334344596 -0.0655095638
292936250.0 0.7321153116 -0.0783993222 -0.0582373827 -0.6549312431 -0.0579701437 -0.6551914094 0.7330426093 -0.0707874343
294810000.0 0.7318078099 -0.0840978238 -0.0634211709 -0.6537616834 -0.062845324 -0.6540838202 0.73289528 -0.0765664355
296683750.0 0.7315425989 -0.0894679335 -0.0681044664 -0.6534010345 -0.0678593055 -0.6534558928 0.7327935313 -0.081748639
298557500.0 0.7313003565 -0.0949328573 -0.0732304953 -0.6522049984 -0.0728713771 -0.6526619169 0.7326225115 -0.087314052
300431250.0 0.7305899188 -0.1007263759 -0.0782589275 -0.6512975959 -0.0781368586 -0.6516691878 0.7319162764 -0.0929517428
302305000.0 0.7300402276 -0.1060833818 -0.0831497844 -0.6507075932 -0.0832615276 -0.6506962998 0.7311731459 -0.0982562258
304178750.0 0.7295847819 -0.1117287676 -0.0882867172 -0.6497700305 -0.0882295321 -0.6499727994 0.7308245692 -0.1038231304
306052500.0 0.7284005458 -0.1171784735 -0.0933901651 -0.6488132929 -0.093174812 -0.6492756923 0.7298962044 -0.1092826278
307926250.0 0.7277044469 -0.1228202751 -0.098534455 -0.6480706603 -0.0983641174 -0.6481581671 0.7293502415 -0.1146219231
309800000.0 0.7269565314 -0.1282009884 -0.1031841542 -0.6473878703 -0.1033167599 -0.6473532061 0.7285012661 -0.1199622868
311673750.0 0.7257898686 -0.1337120824 -0.1082913756 -0.6463078202 -0.108207283 -0.6464277019 0.7274979555 -0.1255972376
313547500.0 0.7246445374 -0.1390210789 -0.1133005983 -0.6454779752 -0.1131264685 -0.6455549012 0.7264598899 -0.1310398792
315421250.0 0.7234784705 -0.1447322353 -0.1181747056 -0.6443244644 -0.1184503043 -0.6446419336 0.7253608734 -0.1363526743
317295000.0 0.7224631063 -0.1501719823 -0.1234929523 -0.6437789729 -0.1235085789 -0.6436477573 0.7242882553 -0.1419331035
319168750.0 0.7210693093 -0.1556627382 -0.1286900404 -0.6429624987 -0.1285608078 -0.6428452206 0.7230031252 -0.1474538194
321042500.0 0.7197385939 -0.1610323946 -0.1335121995 -0.6420578205 -0.1334012755 -0.641813922 0.7217161743 -0.1525193143
322916250.0 0.7182868837 -0.1664661779 -0.1389069292 -0.6411051457 -0.1385933166 -0.6411756157 0.7204003115 -0.1578547298
