!	Fieldfox Controller
!	Chapman University - Class ENG398
!	Introduction to RF - DMG (2024)
! 
!Created with skrf (http://scikit-rf.org).
# Hz S RI R 50.0 
!freq ReS11 ImS11 ReS21 ImS21 ReS12 ImS12 ReS22 ImS22
10000000.0 0.000755833 0.0001823483 0.9991913764 -0.0128267132 0.999124215 -0.0129326146 0.0007365716 0.0002569043
13747500.0 0.0009004918 0.0001341102 0.9988841339 -0.0176523455 0.99901056 -0.0176197594 0.0008097323 0.0002857866
17495000.0 0.0008652529 0.0001499385 0.9988794474 -0.0223193868 0.9985755469 -0.0223168298 0.0008081622 0.0002804795
21242500.0 0.0009827305 3.33771e-05 0.9985097427 -0.0271278683 0.998298955 -0.027058289 0.000997424 0.000265068
24990000.0 0.0010986286 -0.0001404029 0.998333895 -0.0315308881 0.9978787981 -0.0315063876 0.00105806 0.0002800943
28737500.0 0.001138219 -0.000149276 0.9979578241 -0.0361400242 0.9980178214 -0.0363127383 0.0010319259 7.47177e-05
32485000.0 0.0012218933 -0.000254548 0.9971673863 -0.040887421 0.9975589058 -0.0408302121 0.0011519485 4.1101e-06
36232500.0 0.001208017 -0.000311515 0.9976653339 -0.0456217225 0.9972318725 -0.0453768471 0.0010582892 -0.0001334268
39980000.0 0.0012451134 -0.0003859711 0.9966914644 -0.0501107589 0.9965587578 -0.0500831159 0.0011018252 -0.0001234157
43727500.0 0.0013769166 -0.0004759976 0.9967802271 -0.054796164 0.9964615412 -0.0549177529 0.0010617705 -0.0003104786
47475000.0 0.0013245696 -0.0006366974 0.9962685498 -0.0592696723 0.9963404145 -0.0592806152 0.0010277271 -0.0004125177
51222500.0 0.0012590049 -0.0008002921 0.9956833154 -0.063685613 0.9958677214 -0.0638953915 0.0012221915 -0.0005404425
54970000.0 0.0014053036 -0.000898895 0.9956528018 -0.0683413465 0.9953479206 -0.0684939143 0.00114947 -0.0007236388
58717500.0 0.0013175139 -0.0009849779 0.9949247042 -0.0729083216 0.9951151074 -0.0730395008 0.0011991189 -0.0009145738
62465000.0 0.0013279174 -0.0012252433 0.9942931923 -0.0775730031 0.9943896105 -0.0775275413 0.0012246061 -0.0010345663
66212500.0 0.001393549 -0.0012671821 0.9941580711 -0.0822942219 0.9940996335 -0.0820378027 0.0012202219 -0.0011002261
69960000.0 0.0014213005 -0.0014470613 0.9937624987 -0.0867070462 0.9934730198 -0.0867437259 0.0011761115 -0.0014058042
73707500.0 0.0014871528 -0.001479586 0.9933544077 -0.0911226138 0.993068959 -0.091271137 0.0012596756 -0.001478586
77455000.0 0.0014525132 -0.0016048901 0.9929351104 -0.0958758296 0.9925385933 -0.0959140147 0.0012782586 -0.0017142493
81202500.0 0.0015712136 -0.001708402 0.9922955549 -0.1002501664 0.9921021263 -0.1003953729 0.0012786607 -0.0019731942
84950000.0 0.001519684 -0.001974286 0.9913896894 -0.1048807926 0.9912918033 -0.1047013867 0.0013791092 -0.0020697376
88697500.0 0.0015249756 -0.0019696006 0.9911613716 -0.1093268549 0.9908732706 -0.1091644432 0.0013565368 -0.0022794569
92445000.0 0.0015703778 -0.0021708851 0.9903894568 -0.1138612334 0.990078834 -0.1137739298 0.001248406 -0.0024818426
96192500.0 0.0015225317 -0.0021384839 0.9897579121 -0.1179883802 0.9898321882 -0.1183574977 0.0014577055 -0.0025432872
99940000.0 0.0017227804 -0.002385469 0.9892106194 -0.1231279151 0.9890886692 -0.1228308049 0.0015999306 -0.0025878923
103687500.0 0.0019110299 -0.0025468259 0.9889077549 -0.1272992463 0.9888985365 -0.1270797377 0.0016936981 -0.0028509501
107435000.0 0.0017519337 -0.0028606451 0.9880898841 -0.1319809443 0.9878083521 -0.1321361023 0.001620387 -0.0030276388
111182500.0 0.0017383867 -0.0028301105 0.987509334 -0.1367390815 0.9871406069 -0.1366000996 0.0016690758 -0.0031090882
114930000.0 0.0017845948 -0.0030236035 0.9866518787 -0.1407670394 0.9867033467 -0.1407557868 0.001723449 -0.0031894891
118677500.0 0.0017912083 -0.003133367 0.9859543448 -0.1454463764 0.9858417463 -0.1453928814 0.0017057707 -0.0032472401
122425000.0 0.0017626981 -0.0032355944 0.9852534469 -0.1499841339 0.9850304015 -0.1499470282 0.0018492053 -0.0035211382
126172500.0 0.0017296703 -0.0035076222 0.9844912718 -0.1542821091 0.9846121487 -0.1544465459 0.001977632 -0.0036150472
129920000.0 0.0016921413 -0.003676902 0.9834438632 -0.1585869698 0.9837963793 -0.1589193435 0.0019156678 -0.0037444484
133667500.0 0.0016142499 -0.0037530909 0.9830069746 -0.1630128696 0.9825795521 -0.1632670984 0.0020839542 -0.0037994318
137415000.0 0.0016566121 -0.0038876964 0.9820380405 -0.1678724243 0.9820477358 -0.1678726449 0.002206193 -0.0040103168
141162500.0 0.001580889 -0.0039675918 0.9815153634 -0.1722171518 0.9810423301 -0.1725949259 0.0021764174 -0.0041164918
144910000.0 0.0015390693 -0.0042305952 0.9805836139 -0.1764374664 0.9801968977 -0.1765138122 0.0021366728 -0.0042167253
148657500.0 0.0014376155 -0.0044773935 0.9794402827 -0.1811919237 0.9791748997 -0.1811972781 0.0020818418 -0.0043545762
152405000.0 0.0014366273 -0.0045371262 0.978295997 -0.1857311835 0.9781756909 -0.1855169387 0.0021969073 -0.0043833908
156152500.0 0.0012799085 -0.0047222894 0.9776171076 -0.190154473 0.977936193 -0.1900452532 0.0021475612 -0.0045785193
159900000.0 0.0011739617 -0.0048882601 0.9768686344 -0.194496072 0.9765775661 -0.1944325688 0.0020528839 -0.004697799
163647500.0 0.0011697229 -0.0049687161 0.9758971515 -0.1988478106 0.9759079258 -0.1990667952 0.0020882868 -0.0047507789
167395000.0 0.0010809594 -0.005162253 0.9745901593 -0.2035351576 0.9747790105 -0.2031781856 0.0020636276 -0.0049381686
171142500.0 0.000886498 -0.0052740271 0.9741116733 -0.2077745553 0.9741502234 -0.2076155469 0.0019565171 -0.0050764885
174890000.0 0.0007067617 -0.0053924542 0.9729544894 -0.2121894936 0.9730335661 -0.2121072568 0.0019943219 -0.0051035445
178637500.0 0.000745703 -0.0056307285 0.9718860431 -0.2164393941 0.9720228513 -0.2165036114 0.0018354805 -0.00549316
182385000.0 0.000572067 -0.0056686462 0.9706388112 -0.2208061173 0.9708391326 -0.2207319535 0.0017053136 -0.0055427831
186132500.0 0.0003455189 -0.0058772496 0.9696879929 -0.2257582835 0.9698742019 -0.2254682325 0.0016765151 -0.0058060206
189880000.0 0.0004354176 -0.0061016828 0.9687352679 -0.2299107943 0.968508086 -0.2303220814 0.0016984889 -0.0059500044
193627500.0 0.0001532847 -0.0061983189 0.967685761 -0.2341601883 0.9672861692 -0.2343327608 0.0015770521 -0.0060931085
197375000.0 9.8965e-05 -0.0064238002 0.9662571906 -0.2388596996 0.9665801771 -0.2384951173 0.001462516 -0.0064052446
201122500.0 5.46163e-05 -0.006460267 0.9653658531 -0.242902813 0.9653247319 -0.2431334198 0.0013737409 -0.0065367714
204870000.0 -0.0001445955 -0.0066629449 0.9641893878 -0.2471579433 0.9641696209 -0.2474006644 0.0012858336 -0.0066680296
208617500.0 -0.0002575659 -0.0067886378 0.9629012287 -0.2516924322 0.9630599068 -0.2519734642 0.0011864415 -0.0069445876
212365000.0 -0.000368413 -0.0070558947 0.9616172804 -0.2559164746 0.9617311661 -0.2561010762 0.0010986683 -0.0071946926
216112500.0 -0.0004551601 -0.0071286198 0.9604866762 -0.2605543607 0.9607212247 -0.2605987194 0.0011012893 -0.0074544219
219860000.0 -0.000567066 -0.0074124628 0.9592114791 -0.2652041131 0.9591849083 -0.2650961455 0.0010052191 -0.0076795548
223607500.0 -0.0005262937 -0.0075938449 0.9582834507 -0.269354568 0.9581403232 -0.2695045076 0.0008702526 -0.0078283295
227355000.0 -0.0006075131 -0.0076776593 0.9567511449 -0.2735453446 0.9567924248 -0.273482591 0.0009316546 -0.0080812786
231102500.0 -0.0006826223 -0.0078882793 0.9558181456 -0.2781738277 0.9553713168 -0.2782894127 0.0008112262 -0.0082949616
234850000.0 -0.0007374246 -0.008125126 0.953890694 -0.281988333 0.9541220582 -0.2824526478 0.0007598549 -0.0084771162
238597500.0 -0.0008145839 -0.0082447214 0.952978595 -0.2867463769 0.952878954 -0.2864685866 0.0006644373 -0.0086919312
242345000.0 -0.0007705112 -0.0084278228 0.951882208 -0.2910116686 0.9514935653 -0.2906819916 0.0006314561 -0.0088667319
246092500.0 -0.0008188688 -0.0086086682 0.9500217814 -0.2954095157 0.9499996887 -0.2951163179 0.0006718962 -0.0091011198
249840000.0 -0.0009005099 -0.0088318148 0.9487117185 -0.2997492734 0.9487066111 -0.2994288523 0.000616807 -0.0092170783
253587500.0 -0.0009513385 -0.0090418739 0.94714627 -0.3039942842 0.9474971555 -0.303828563 0.0005554263 -0.0093570924
257335000.0 -0.0009970037 -0.009074479 0.9462102294 -0.3081636888 0.9459062944 -0.3080344513 0.0005481654 -0.0095984736
261082500.0 -0.001063968 -0.0094019005 0.9444857833 -0.3123438154 0.9443243488 -0.3123712251 0.0004753705 -0.0097030868
264830000.0 -0.0010755321 -0.009435495 0.9427810481 -0.3170645532 0.9429371356 -0.3169719208 0.000507329 -0.009798013
268577500.0 -0.0011214744 -0.0096248765 0.9414154567 -0.3209888242 0.9415409279 -0.3212442475 0.0003559553 -0.0099512525
272325000.0 -0.0011264956 -0.00979533 0.9398776854 -0.3251848835 0.9401657238 -0.3251768223 0.0003397785 -0.0101209996
276072500.0 -0.0012309842 -0.010029401 0.9384264986 -0.3297786187 0.9383738972 -0.3298886405 0.0003939805 -0.0102340112
279820000.0 -0.001282038 -0.0101139002 0.9368418764 -0.3340315156 0.9370126891 -0.3338009661 0.0002804531 -0.0104264705
283567500.0 -0.0014700896 -0.010245922 0.9355324184 -0.3380711032 0.9351247102 -0.3380908935 0.0002420996 -0.0105053056
287315000.0 -0.0013839612 -0.0103974671 0.9337861706 -0.3424630657 0.9336023474 -0.3421484513 0.0002201473 -0.0106292053
291062500.0 -0.0014549478 -0.0104105631 0.932382579 -0.3467741464 0.9318799525 -0.3464081523 0.0001756155 -0.0106740099
294810000.0 -0.0016570038 -0.0105745868 0.9308457152 -0.3506995668 0.9307947665 -0.3504221775 0.0001629919 -0.0106295819
298557500.0 -0.0016477653 -0.0106466071 0.9287490314 -0.3550092938 0.9288186469 -0.3547835754 2.2686e-05 -0.0107564209
302305000.0 -0.0017872065 -0.010792172 0.9272316747 -0.359270124 0.9269870372 -0.3589667185 -6.26221e-05 -0.0108896888
306052500.0 -0.0018005509 -0.0108509919 0.9253258422 -0.363338393 0.9257343762 -0.3633916299 -1.79227e-05 -0.0109865243
309800000.0 -0.0020426367 -0.0108805284 0.9238618744 -0.3674431676 0.9237150455 -0.3674392338 -0.0001665279 -0.0110123212
313547500.0 -0.0022645765 -0.0109040702 0.9220159468 -0.3716704269 0.9221169714 -0.37172624 -0.000312345 -0.0112005123
317295000.0 -0.002307036 -0.0110868401 0.9206667152 -0.3759225047 0.9201076261 -0.3755915157 -0.0003852558 -0.0111805746
321042500.0 -0.0024366042 -0.0111137846 0.9186853675 -0.3803431421 0.9183869814 -0.3796731834 -0.000470549 -0.0112372186
324790000.0 -0.0025667586 -0.0111949147 0.9167184775 -0.384093793 0.9171019666 -0.3843023489 -0.0006236713 -0.011291163
328537500.0 -0.002590822 -0.0112972532 0.9148707445 -0.3886725819 0.9152499584 -0.3883489125 -0.0007532598 -0.0114841712
332285000.0 -0.0028194801 -0.0113384462 0.9132838944 -0.3924887983 0.9131052798 -0.3924608106 -0.0007545753 -0.011559858
336032500.0 -0.0029187065 -0.0113326765 0.9116168835 -0.3961478788 0.9114178439 -0.3960994405 -0.0010257363 -0.0116318369
339780000.0 -0.0030060315 -0.011372274 0.9097046146 -0.4007136984 0.9096421845 -0.4005737457 -0.0011734354 -0.0118808354
343527500.0 -0.0031295267 -0.0115551296 0.9075480955 -0.4048322088 0.9078816803 -0.40450667 -0.0011217944 -0.0120114882
347275000.0 -0.003368221 -0.0116020648 0.9058208043 -0.4090804692 0.9057016216 -0.4086262311 -0.0014159068 -0.0121734768
351022500.0 -0.0034746533 -0.0117315649 0.9041125256 -0.4128863253 0.9038686643 -0.4130805296 -0.0014485857 -0.0123328847
354770000.0 -0.0036328171 -0.0118525705 0.9020482123 -0.4171315078 0.9019964221 -0.4171068706 -0.0016583815 -0.0123671668
358517500.0 -0.0035838643 -0.0120335298 0.8999686352 -0.421162461 0.9001285368 -0.4212792243 -0.0016544589 -0.0125775745
362265000.0 -0.0037500965 -0.0121855186 0.8983215927 -0.4251758417 0.8980418076 -0.425169974 -0.0018933285 -0.0127885819
366012500.0 -0.003871148 -0.0122128013 0.8962420494 -0.4291582413 0.8963330378 -0.4290070681 -0.0019093646 -0.0129668989
369760000.0 -0.0039387017 -0.0123384136 0.89406584 -0.4331850757 0.8941356022 -0.4334145817 -0.002091761 -0.0131607771
373507500.0 -0.0042057071 -0.0124805419 0.8918922039 -0.4373499751 0.8921937059 -0.4373083795 -0.0022456976 -0.0132862721
377255000.0 -0.0042157453 -0.0126267533 0.890262251 -0.4415846065 0.890171301 -0.4414953688 -0.0023436589 -0.0134813528
381002500.0 -0.0045013685 -0.0128027753 0.8878271819 -0.4458049824 0.8878606555 -0.4454870865 -0.0024071004 -0.0136315451
384750000.0 -0.0045393238 -0.0129839947 0.8861418542 -0.4496893578 0.886154019 -0.4494985091 -0.0025528192 -0.0138899622
388497500.0 -0.0046850682 -0.0131947072 0.8838091923 -0.4536740311 0.88394617 -0.4536606762 -0.0026254181 -0.0139968374
392245000.0 -0.0047918294 -0.0133585227 0.8817502657 -0.4573502419 0.8817248048 -0.4573718425 -0.0028609965 -0.0141823163
395992500.0 -0.0049734384 -0.0135703621 0.8797121296 -0.4612343165 0.8798838566 -0.4613159009 -0.0028267404 -0.014410978
399740000.0 -0.0050718651 -0.0136785011 0.877672966 -0.4653618898 0.8774330492 -0.4654674733 -0.0027996664 -0.0145942951
403487500.0 -0.0051762361 -0.0138417866 0.8755461416 -0.4696991732 0.8754624362 -0.4695615565 -0.0031095064 -0.0147230791
407235000.0 -0.0053115324 -0.0138878446 0.8730156641 -0.4735392091 0.8732335218 -0.4734251612 -0.0031030953 -0.0149595373
410982500.0 -0.0054238605 -0.0141923911 0.8711660329 -0.4776568715 0.8710053123 -0.4774621044 -0.0032303049 -0.0150847848
414730000.0 -0.0055715818 -0.014318562 0.8690868994 -0.4817679948 0.8688668791 -0.481372189 -0.0033290445 -0.0150710151
418477500.0 -0.0056613117 -0.0145593875 0.8669743277 -0.4850855336 0.8667319255 -0.4852348093 -0.0034356282 -0.015321372
422225000.0 -0.0058231421 -0.0146087382 0.8640736249 -0.4891052202 0.8644593131 -0.4889665059 -0.0035250924 -0.0153805624
425972500.0 -0.0060018968 -0.01478803 0.8621039474 -0.4928623741 0.8619291338 -0.4932164226 -0.0035985723 -0.0154410753
429720000.0 -0.0062233822 -0.0148926083 0.8596295148 -0.4970339399 0.85953457 -0.4969025517 -0.0037350161 -0.0156433605
433467500.0 -0.0062984911 -0.0150711571 0.8573439802 -0.500843997 0.8576417652 -0.5005978171 -0.0037313562 -0.015642614
437215000.0 -0.0064360216 -0.0150467278 0.8552098888 -0.5044445084 0.8553252483 -0.5045953707 -0.0039163837 -0.0157077099
440962500.0 -0.0066339526 -0.0152017462 0.8529197146 -0.5084204277 0.8530286397 -0.508347349 -0.0039227171 -0.0157992836
444710000.0 -0.0068663479 -0.0152142372 0.850431191 -0.5124316948 0.850486271 -0.5123928444 -0.0040841496 -0.0158326822
448457500.0 -0.0070194394 -0.0152230601 0.847953173 -0.5160797641 0.8483315257 -0.516584238 -0.004226733 -0.0160905391
452205000.0 -0.0072578833 -0.0153078661 0.8459697222 -0.5200749861 0.8456595402 -0.5197185507 -0.0043221175 -0.0160174299
455952500.0 -0.0073781119 -0.0153403019 0.8432663669 -0.5237274043 0.8435182656 -0.5238812988 -0.0043248678 -0.0161390106
459700000.0 -0.0076393446 -0.0154389769 0.840818826 -0.5277690815 0.8410835535 -0.5274674253 -0.00444512 -0.0163692298
463447500.0 -0.0078748972 -0.0155008394 0.8385151942 -0.5314770842 0.8386215274 -0.5314251618 -0.0046573028 -0.0163344601
467195000.0 -0.0079554178 -0.0155748626 0.8362606555 -0.5354771039 0.836154432 -0.5352840576 -0.004806284 -0.0163499945
470942500.0 -0.0081771177 -0.0155442571 0.8336672916 -0.5389179019 0.8335402854 -0.5389965364 -0.0048646535 -0.0164483003
474690000.0 -0.0084121782 -0.0155131497 0.8310047668 -0.5425200669 0.8310243207 -0.5426446313 -0.0050408151 -0.0165478023
478437500.0 -0.0086838056 -0.0155964638 0.8285954565 -0.5465834715 0.8285328707 -0.546285887 -0.0052139014 -0.0167234949
482185000.0 -0.0089124784 -0.0154976951 0.8258183703 -0.5501025372 0.8260759296 -0.5499599732 -0.0053282856 -0.0167807754
485932500.0 -0.0090618351 -0.0155713454 0.8234193178 -0.553860055 0.8237823076 -0.5541193555 -0.0055317437 -0.0169275085
489680000.0 -0.0092727252 -0.0155431915 0.8210772049 -0.5576196689 0.8211005341 -0.5576103286 -0.0057414656 -0.0171746438
493427500.0 -0.0094494263 -0.015644377 0.8184227187 -0.5614395993 0.8186804161 -0.561230843 -0.0058395394 -0.0172375252
497175000.0 -0.009786747 -0.0156043085 0.8158847731 -0.5650967969 0.8159740353 -0.5651197375 -0.0059530654 -0.0173202975
500922500.0 -0.0097793761 -0.015702057 0.8133668028 -0.5684077282 0.8132420411 -0.5685936893 -0.0062010701 -0.0175095589
504670000.0 -0.0101207191 -0.0157866284 0.8110714471 -0.5725787234 0.8108272249 -0.5724074284 -0.006282647 -0.0177000968
508417500.0 -0.0102070921 -0.0158539487 0.8080628425 -0.5760803274 0.8085360966 -0.576229661 -0.0064850316 -0.0178428873
512165000.0 -0.0103863563 -0.0159423138 0.8054601735 -0.5797491299 0.8051836577 -0.5796341112 -0.0066178128 -0.0180296399
515912500.0 -0.0107802344 -0.015949429 0.8025112826 -0.5835280857 0.8027799206 -0.5831668943 -0.0068341588 -0.0181972888
519660000.0 -0.0108222806 -0.0161392825 0.7999688569 -0.5869749222 0.8001153476 -0.5869237366 -0.0071334956 -0.0183376525
523407500.0 -0.0109870135 -0.016192069 0.797435733 -0.5908726595 0.7973040373 -0.5904716213 -0.0070580439 -0.0184183164
527155000.0 -0.0111752409 -0.0163887443 0.794578933 -0.5942294755 0.7944616313 -0.5942195764 -0.0073387344 -0.0187771939
530902500.0 -0.0113155288 -0.0164912297 0.792043677 -0.5978588855 0.7919911083 -0.5974818079 -0.0075099357 -0.0187594563
534650000.0 -0.011623136 -0.0166815153 0.789116355 -0.6013852747 0.7893411333 -0.6014206891 -0.0077267179 -0.0189890979
538397500.0 -0.0117827183 -0.0166274179 0.7864631308 -0.6049363701 0.7860871287 -0.6048262577 -0.0080025508 -0.0190694023
542145000.0 -0.0119887116 -0.0169989055 0.7835898098 -0.6089336665 0.7836274724 -0.6083451355 -0.0082065523 -0.0192258139
545892500.0 -0.0120930692 -0.0171234546 0.7806326753 -0.6116631047 0.7807830665 -0.6119593641 -0.0083056812 -0.019440339
549640000.0 -0.0123469711 -0.0172728826 0.7777680352 -0.6156040591 0.7779067482 -0.6153102679 -0.0085498073 -0.0196143259
553387500.0 -0.012435219 -0.0173563551 0.775041659 -0.6190576339 0.7752317348 -0.618713858 -0.0086584532 -0.0197608373
557135000.0 -0.0126372053 -0.017541832 0.7721214981 -0.6229277658 0.7721019859 -0.6224403511 -0.0088413166 -0.0197931341
560882500.0 -0.0127512415 -0.0177277708 0.7692980285 -0.6258014983 0.7695431649 -0.6259547383 -0.0091799057 -0.0198468011
564630000.0 -0.0130283603 -0.0179855587 0.7663585615 -0.6293099454 0.7664420664 -0.6293671507 -0.0092463576 -0.0199837588
568377500.0 -0.0133257844 -0.0181085168 0.763389959 -0.6329166799 0.7634424929 -0.6324895945 -0.009428399 -0.0199313279
572125000.0 -0.0133834273 -0.0182245654 0.7604756896 -0.6359597718 0.7608993588 -0.6359946593 -0.0097188715 -0.0201163646
575872500.0 -0.0136124696 -0.0182454625 0.7575699376 -0.639984489 0.7578858722 -0.6394374931 -0.0099032265 -0.0202668669
579620000.0 -0.0137258242 -0.0184644788 0.754661765 -0.643013454 0.7548006197 -0.6430899745 -0.010226103 -0.0202443361
583367500.0 -0.013910653 -0.0185848342 0.7517397785 -0.6466329641 0.7519876485 -0.6462950118 -0.0103487661 -0.0202559835
587115000.0 -0.0140922485 -0.0187371653 0.7489319772 -0.6497743397 0.7490682354 -0.6499530179 -0.0105722516 -0.0202118222
590862500.0 -0.0142728378 -0.0187390607 0.7457660645 -0.6530757814 0.7459657015 -0.6528891414 -0.0107226169 -0.0202950328
594610000.0 -0.0144481579 -0.0188695246 0.7426027792 -0.6563216456 0.742782484 -0.6567424501 -0.0109444852 -0.0203377072
598357500.0 -0.0146233572 -0.0188381754 0.7402418054 -0.660050733 0.7400453965 -0.6597357301 -0.0112704955 -0.0202562961
602105000.0 -0.014790697 -0.0189246377 0.7369394106 -0.6633757911 0.7368901223 -0.6633006094 -0.0113432147 -0.0203105227
605852500.0 -0.0149653855 -0.0189794463 0.7334779835 -0.6667179027 0.7339070528 -0.6664499626 -0.011624475 -0.0203749197
609600000.0 -0.0151760786 -0.0190017376 0.7308303182 -0.6692379399 0.7308686679 -0.669831398 -0.0117314761 -0.020383629
613347500.0 -0.0153404772 -0.0190228683 0.727748588 -0.6732561333 0.7277753371 -0.6729622081 -0.0119060537 -0.0202938778
617095000.0 -0.0155696043 -0.0188782425 0.7243811932 -0.6762264219 0.7247252059 -0.6765180626 -0.0121013302 -0.020308788
620842500.0 -0.0157073502 -0.0189074276 0.7214852844 -0.6793787074 0.7212181376 -0.6798164776 -0.0123892838 -0.0203542339
624590000.0 -0.0159374718 -0.0189209903 0.7181260979 -0.6830608525 0.7184878833 -0.6825167945 -0.0125527156 -0.0203018328
