!	Fieldfox Controller
!	Chapman University - Class ENG398
!	Introduction to RF - DMG (2024)
! 
!Created with skrf (http://scikit-rf.org).
# Hz S RI R 50.0 
!freq ReS11 ImS11 ReS21 ImS21 ReS12 ImS12 ReS22 ImS22
10000000.0 -0.335985171 0.0043095983 -2.96265e-05 3.36578e-05 2.5986e-06 7.4836e-06 -0.0011990851 -0.0005577268
13747500.0 -0.335971825 0.0062084861 -9.1511e-06 4.3775e-05 -1.7056e-06 -6.31356e-05 -0.0012071324 -0.0006823722
17495000.0 -0.3356850981 0.007454923 1.16338e-05 -6.96656e-05 -2.467e-07 -2.03644e-05 -0.0012545881 -0.0008972174
21242500.0 -0.3356613845 0.0089955962 4.7834e-06 3.39358e-05 -8.6949e-06 -1.81143e-05 -0.0013198536 -0.0011984862
24990000.0 -0.3356631628 0.010423813 3.61204e-05 3.93892e-05 2.7266e-05 2.72264e-05 -0.0012587236 -0.0014225061
28737500.0 -0.335402045 0.0119694471 -6.569e-06 4.66622e-05 3.5761e-06 1.79533e-05 -0.0013350124 -0.0015969298
32485000.0 -0.3352189818 0.0134994044 -1.45832e-05 -2.471e-06 -2.21846e-05 4.469e-07 -0.0014519892 -0.0017630911
36232500.0 -0.3352182269 0.0149638716 -4.2007e-06 -1.86157e-05 -2.05644e-05 -4.83573e-05 -0.0014462679 -0.0020688617
39980000.0 -0.3350218514 0.0163781992 7.66507e-05 5.5501e-05 2.82851e-05 -1.2295e-05 -0.0015238439 -0.0023331387
43727500.0 -0.3348524134 0.0178378041 9.1771e-06 2.26084e-05 -1.82737e-05 7.1083e-06 -0.001563113 -0.0025960458
47475000.0 -0.3347195255 0.0193759561 -8.9649e-06 -6.41638e-05 -3.31719e-05 3.73384e-05 -0.001643675 -0.0028666587
51222500.0 -0.3344957231 0.0206987506 7.6387e-06 6.3473e-06 4.01634e-05 9.4601e-06 -0.001618061 -0.0031854986
54970000.0 -0.33435978 0.0222727534 3.36497e-05 -7.4556e-06 9.9652e-06 -4.6868e-06 -0.0017790406 -0.0034273025
58717500.0 -0.3342322909 0.0236235503 -1.1645e-06 -2.8902e-06 7.0633e-06 3.3163e-05 -0.0017826822 -0.0036898736
62465000.0 -0.3340118327 0.0250811075 1.06101e-05 4.91141e-05 2.0035e-06 3.90512e-05 -0.0017797812 -0.0040929376
66212500.0 -0.3337548949 0.0264992328 3.87788e-05 6.00781e-05 -3.20661e-05 -3.6565e-06 -0.0018655848 -0.0043653556
69960000.0 -0.3336667497 0.0278962535 3.43455e-05 4.33391e-05 3.11684e-05 2.4887e-06 -0.0018966789 -0.0047064401
73707500.0 -0.3334511496 0.0293221371 4.48423e-05 -3.49661e-05 4.46362e-05 2.0332e-06 -0.0019105588 -0.0050099268
77455000.0 -0.3332932595 0.0306793863 2.48393e-05 3.05951e-05 -3.77112e-05 -1.20931e-05 -0.0018540539 -0.0053144193
81202500.0 -0.3330701212 0.0320976648 3.60226e-05 6.8352e-06 9.343e-07 -2.614e-06 -0.001973006 -0.0056736298
84950000.0 -0.3328919339 0.0334903648 -2.42245e-05 2.08636e-05 -1.90281e-05 4.28156e-05 -0.0020586388 -0.005969535
88697500.0 -0.3326934658 0.0348587102 2.33809e-05 1.96626e-05 4.66576e-05 2.91566e-05 -0.0020576571 -0.0062400089
92445000.0 -0.3323967855 0.0363387503 4.63998e-05 3.3166e-06 -1.42496e-05 1.24084e-05 -0.0020295104 -0.0065828938
96192500.0 -0.3322888482 0.0377109847 -2.53764e-05 4.21473e-05 4.271e-06 5.4569e-06 -0.0020748995 -0.0068841996
99940000.0 -0.3320500817 0.0390231802 3.20552e-05 1.22836e-05 -1.738e-06 2.44154e-05 -0.0020806476 -0.0071402016
103687500.0 -0.3318266027 0.0405425816 6.2064e-05 -8.2084e-06 4.45354e-05 -2.28078e-05 -0.0021011854 -0.0074367204
107435000.0 -0.3315570166 0.0420292496 -3.4467e-06 6.68444e-05 6.09549e-05 -4.049e-06 -0.0021324467 -0.0076743956
111182500.0 -0.331328731 0.0434357595 3.64518e-05 6.129e-05 3.155e-06 2.68846e-05 -0.0021500063 -0.007951013
114930000.0 -0.3311097387 0.044810987 -1.83953e-05 8.0588e-06 2.01745e-05 -2.12956e-05 -0.0020963435 -0.0081916405
118677500.0 -0.3308473711 0.046321458 -1.45188e-05 -2.92398e-05 -4.9741e-06 1.02177e-05 -0.0020261643 -0.0085579547
122425000.0 -0.3306134095 0.0476411798 6.87425e-05 7.0905e-06 -2.40893e-05 2.83399e-05 -0.0021439757 -0.0086566418
126172500.0 -0.3304391752 0.0491608216 9.4652e-06 3.53053e-05 2.12876e-05 2.05939e-05 -0.0021316684 -0.0088731594
129920000.0 -0.3302001742 0.0505974944 -1.73646e-05 2.02686e-05 6.5626e-06 -2.51896e-05 -0.0021762307 -0.0091122615
133667500.0 -0.3298896783 0.0519922768 -1.43724e-05 -3.75821e-05 -7.7524e-06 5.22687e-05 -0.0021764535 -0.0093242228
137415000.0 -0.3296034141 0.0534591854 -7.4794e-06 -3.75846e-05 -3.42623e-05 1.72339e-05 -0.0022981424 -0.0095550673
141162500.0 -0.329322444 0.0547803452 -3.70632e-05 6.6767e-06 8.0074e-06 1.00953e-05 -0.0023075332 -0.0097223713
144910000.0 -0.3291092703 0.0562912988 2.46734e-05 -3.1238e-05 3.54621e-05 8.80406e-05 -0.0024352869 -0.009913226
148657500.0 -0.3289492928 0.0576281876 -2.89092e-05 2.3755e-05 2.31437e-05 2.80961e-05 -0.0024063995 -0.0101852667
152405000.0 -0.328624615 0.0590456056 6.88131e-05 3.1865e-05 -1.74199e-05 7.41728e-05 -0.0025262973 -0.0103327039
156152500.0 -0.3282677217 0.060522192 3.23427e-05 7.15517e-05 1.24452e-05 7.5971e-06 -0.0026720841 -0.0104660891
159900000.0 -0.328113806 0.0618712771 1.83488e-05 3.49468e-05 2.26703e-05 -1.50928e-05 -0.0027467446 -0.0106879062
163647500.0 -0.3278153647 0.0634393446 4.52815e-05 -9.2913e-06 4.33845e-05 -4.0289e-06 -0.0030123925 -0.0109032442
167395000.0 -0.3274907417 0.064688968 2.02146e-05 8.50853e-05 -8.47216e-05 -1.46412e-05 -0.0030457745 -0.0111405365
171142500.0 -0.3272113686 0.0661067381 2.60653e-05 4.09055e-05 -2.24419e-05 2.7736e-06 -0.0031288416 -0.0113761799
174890000.0 -0.3270703117 0.06753073 2.25437e-05 4.12378e-05 2.52097e-05 5.92899e-05 -0.0033394564 -0.0116094074
178637500.0 -0.3266686802 0.0687208842 -1.6201e-05 2.99156e-05 7.9239e-06 -6.6273e-06 -0.0035188833 -0.0117442365
182385000.0 -0.3264530036 0.0701516475 -4.4312e-06 -2.28537e-05 3.10109e-05 2.64449e-05 -0.0036260037 -0.0120516981
186132500.0 -0.32610982 0.0715417244 -4.2696e-06 8.1609e-06 7.4773e-06 -2.22607e-05 -0.0038371726 -0.0121347485
189880000.0 -0.325983423 0.0728825365 -6.22e-08 5.92479e-05 -2.92268e-05 8.91799e-05 -0.0040344401 -0.012509001
193627500.0 -0.3255750704 0.0742885414 6.57729e-05 3.63317e-05 1.80914e-05 -6.5586e-06 -0.0041535395 -0.0127635834
197375000.0 -0.3252678893 0.0756488716 -3.01599e-05 1.52058e-05 -1.54813e-05 4.7166e-05 -0.0044385271 -0.0130815857
201122500.0 -0.3250323104 0.0769522659 -1.81629e-05 4.90498e-05 4.0216e-05 6.8872e-06 -0.0044996811 -0.0133019217
204870000.0 -0.3245690747 0.0782140561 -3.39067e-05 8.7657e-06 3.6537e-06 -2.94584e-05 -0.0046752677 -0.0134817233
208617500.0 -0.3243042834 0.0794832228 -2.36199e-05 9.9445e-06 4.82887e-05 -4.08154e-05 -0.0048816524 -0.0138751273
212365000.0 -0.3240347566 0.0809910442 -1.07165e-05 3.3258e-05 2.8845e-05 -3.02156e-05 -0.0050528558 -0.0140698723
216112500.0 -0.3235778152 0.0822386207 6.2161e-06 -2.15041e-05 -1.0247e-05 3.65215e-05 -0.0051450601 -0.0143648224
219860000.0 -0.3231606797 0.083483491 2.18639e-05 -1.3565e-05 1.4679e-05 5.9999e-05 -0.0053567014 -0.0146527909
223607500.0 -0.3227467832 0.0848161557 2.72323e-05 8.76659e-05 1.87171e-05 2.81452e-05 -0.0054585639 -0.014965512
227355000.0 -0.3224339314 0.0861304306 -1.7255e-06 -1.49458e-05 1.07567e-05 4.37875e-05 -0.0055216017 -0.0152447567
231102500.0 -0.3219955701 0.087464011 -3.69819e-05 -5.4668e-06 -4.64854e-05 4.01378e-05 -0.0056790742 -0.0154758445
234850000.0 -0.3216023759 0.0887073636 5.64912e-05 2.8011e-06 3.01696e-05 2.12634e-05 -0.0058736694 -0.0158549576
238597500.0 -0.3212264955 0.0900321809 -3.1779e-06 3.5564e-06 1.198e-07 5.12195e-05 -0.0059007109 -0.0160519726
242345000.0 -0.3206451225 0.0913408316 -5.41121e-05 5.45298e-05 2.178e-07 4.77722e-05 -0.0061428138 -0.0163307199
246092500.0 -0.3203860706 0.0926290215 4.47653e-05 6.23397e-05 -5.3219e-06 -2.45306e-05 -0.0061614142 -0.0166731447
249840000.0 -0.3199142625 0.0939872878 -1.69762e-05 7.08763e-05 1.30518e-05 -4.5229e-06 -0.0062878363 -0.0169248512
253587500.0 -0.3194820225 0.0952282449 -3.7225e-06 5.06329e-05 -9.909e-07 -2.5166e-05 -0.0063560958 -0.0171330869
257335000.0 -0.3190101149 0.0965084458 2.81085e-05 4.7951e-06 -3.04652e-05 2.07074e-05 -0.0064631104 -0.0173440994
261082500.0 -0.3185052678 0.0980026344 2.54849e-05 -2.74826e-05 -2.98643e-05 8.7085e-06 -0.0065312053 -0.0175600466
264830000.0 -0.3179388729 0.099368154 4.62702e-05 -3.08167e-05 -3.02152e-05 2.48386e-05 -0.006644188 -0.0178645793
268577500.0 -0.3174541722 0.1006517519 -3.9276e-05 7.55419e-05 3.09947e-05 7.7713e-06 -0.0068061178 -0.0180567239
272325000.0 -0.3169375641 0.1019308632 -3.91152e-05 1.5745e-06 3.73371e-05 7.50689e-05 -0.0069030514 -0.0182208984
276072500.0 -0.3165871732 0.1033774603 -1.38117e-05 -3.73626e-05 -5.14244e-05 4.5897e-05 -0.0069961343 -0.0183999142
279820000.0 -0.3159521597 0.1046336631 -3.75632e-05 6.20885e-05 5.4299e-06 -1.41545e-05 -0.0070826733 -0.0186419075
283567500.0 -0.3154898356 0.1060562575 4.59898e-05 1.65929e-05 -1.94124e-05 4.27131e-05 -0.0073289128 -0.01883021
287315000.0 -0.314832391 0.1072483725 -9.1551e-06 9.669e-06 2.62549e-05 5.71403e-05 -0.0073313769 -0.0189119653
291062500.0 -0.3145698739 0.1087522725 -4.75023e-05 7.1935e-06 2.12473e-05 6.74652e-05 -0.0075283491 -0.0191003131
294810000.0 -0.3139656788 0.1101762608 5.09101e-05 4.102e-07 5.0639e-06 -1.6554e-06 -0.0077238435 -0.0193699634
298557500.0 -0.3134564707 0.1113265039 -2.81822e-05 5.14529e-05 2.69939e-05 2.73098e-05 -0.0077883515 -0.0192902802
302305000.0 -0.3129503598 0.1128685547 6.22699e-05 -7.24e-06 4.6435e-06 5.69613e-05 -0.0080198331 -0.0195209323
306052500.0 -0.3123246918 0.1142539232 5.68722e-05 -3.01409e-05 -3.4585e-06 3.88486e-05 -0.0081607755 -0.0197071386
309800000.0 -0.3119964838 0.1155772659 -3.9949e-06 1.64918e-05 -2.16578e-05 -3.22861e-05 -0.0084691477 -0.0198007339
313547500.0 -0.3114504881 0.1169803083 -2.46542e-05 2.69395e-05 -1.55205e-05 7.863e-07 -0.0086842523 -0.0199033117
317295000.0 -0.3110647072 0.1182614962 9.2129e-06 2.3229e-05 1.6666e-06 4.5748e-05 -0.0088770714 -0.020086459
321042500.0 -0.3103816386 0.119565786 -9.3941e-06 2.94438e-05 -1.52836e-05 7.08621e-05 -0.0089909804 -0.0202456095
324790000.0 -0.3099156429 0.1209561082 -4.95231e-05 6.70653e-05 -1.23655e-05 -7.7091e-06 -0.0094144655 -0.020384417
328537500.0 -0.3095126217 0.12230568 2.04347e-05 3.96467e-05 -6.2398e-05 3.99987e-05 -0.0095442748 -0.0205521923
332285000.0 -0.3090820537 0.1235400512 -1.02907e-05 6.99387e-05 -2.01382e-05 2.75439e-05 -0.0098483406 -0.0207597989
336032500.0 -0.308527377 0.1248058775 5.6402e-06 -4.2519e-05 9.7554e-06 2.79956e-05 -0.0100973688 -0.0207293275
339780000.0 -0.3077944698 0.1259964315 -2.34102e-05 6.27529e-05 3.90174e-05 2.10133e-05 -0.0104588538 -0.0210741791
343527500.0 -0.3074203101 0.12739407 -2.1746e-06 7.02063e-05 -9.8004e-06 8.10304e-05 -0.0106518002 -0.0211558517
347275000.0 -0.3068005993 0.1286901371 2.97453e-05 6.3083e-05 4.0498e-06 5.4025e-06 -0.0109694856 -0.0213543474
351022500.0 -0.3062576589 0.1300995272 2.01787e-05 4.1116e-05 3.4323e-06 2.23461e-05 -0.0112560142 -0.0216518114
354770000.0 -0.305799471 0.1311979054 -2.49879e-05 0.0001019597 1.78753e-05 3.67405e-05 -0.011517295 -0.0217758872
358517500.0 -0.3051972023 0.1324453962 5.87683e-05 2.0221e-06 4.34454e-05 7.67097e-05 -0.011784532 -0.0221022105
362265000.0 -0.3045726978 0.1336648393 -2.79152e-05 -2.44236e-05 3.05743e-05 4.33886e-05 -0.0119538022 -0.0222354984
366012500.0 -0.3040149919 0.1349698623 1.83495e-05 6.96524e-05 1.01928e-05 5.03929e-05 -0.0123411197 -0.0225357829
369760000.0 -0.3034728598 0.1361368109 7.65531e-05 1.88304e-05 3.195e-05 4.10281e-05 -0.0124758161 -0.0227126455
373507500.0 -0.3028492165 0.1373531748 -1.33174e-05 6.29518e-05 2.70416e-05 8.53524e-05 -0.012892131 -0.0230399724
377255000.0 -0.3022138604 0.1385478835 6.63591e-05 -2.6143e-06 3.51675e-05 7.16775e-05 -0.0130373254 -0.0232100542
381002500.0 -0.3015659708 0.1399442304 1.53646e-05 8.1606e-05 -2.04098e-05 2.38021e-05 -0.0132841474 -0.0234681409
384750000.0 -0.3011284709 0.1410462444 2.54246e-05 5.7997e-06 4.9825e-06 -8.0646e-06 -0.0135578752 -0.0237280744
388497500.0 -0.300482852 0.142180875 7.3555e-06 7.59233e-05 -2.76256e-05 -4.03309e-05 -0.013743286 -0.023967745
392245000.0 -0.2998073569 0.1434759565 2.7542e-06 8.27286e-05 7.23e-07 2.7969e-06 -0.0141006767 -0.0242021232
395992500.0 -0.2991561956 0.1447386245 1.23342e-05 9.01072e-05 -4.19466e-05 3.27933e-05 -0.0142077383 -0.0244505462
399740000.0 -0.2985582029 0.1458913264 4.1462e-05 2.30415e-05 1.88363e-05 3.85662e-05 -0.0144000937 -0.0247287269
403487500.0 -0.2977651204 0.1471687928 2.1325e-05 -1.99118e-05 -8.3057e-06 6.38252e-05 -0.0145948067 -0.024828728
407235000.0 -0.2969798519 0.1482724245 2.08097e-05 1.27078e-05 5.47974e-05 4.23179e-05 -0.0148153604 -0.0251212302
410982500.0 -0.2964998495 0.1494862938 5.72098e-05 3.82403e-05 3.6766e-05 7.11428e-05 -0.0151016665 -0.0252918982
414730000.0 -0.2956609295 0.1507103268 3.92544e-05 4.53029e-05 7.6274e-06 2.22098e-05 -0.0151614765 -0.0254246157
418477500.0 -0.2949796386 0.15192342 -7.1192e-06 1.04422e-05 -3.57198e-05 3.6162e-05 -0.0154691469 -0.0256838578
422225000.0 -0.2943250112 0.1531912984 0.0001019702 1.95869e-05 4.67872e-05 7.17226e-05 -0.0156119207 -0.0258294958
425972500.0 -0.2935152873 0.1543579855 8.00992e-05 2.7584e-05 4.92729e-05 4.4555e-05 -0.01582064 -0.0259670855
429720000.0 -0.2929334112 0.1556670747 2.38263e-05 -4.53e-08 5.57725e-05 3.5074e-06 -0.016025765 -0.0261725045
433467500.0 -0.2922027321 0.15681646 8.2526e-06 4.35339e-05 4.52486e-05 4.34144e-05 -0.0161810709 -0.0262497816
437215000.0 -0.2913549472 0.1581793293 8.0809e-06 9.39502e-05 -5.60838e-05 0.0001003464 -0.0163981618 -0.0264622589
440962500.0 -0.2907181564 0.1594588439 -2.08461e-05 4.38506e-05 2.66459e-05 0.0001297202 -0.0165473687 -0.0265622257
444710000.0 -0.2899071502 0.1605380077 1.39011e-05 1.50105e-05 5.91658e-05 4.78131e-05 -0.0168117962 -0.0265932122
448457500.0 -0.2893113857 0.161712988 4.71892e-05 0.0001113441 -2.0942e-06 6.32016e-05 -0.0170970354 -0.0267429966
452205000.0 -0.2885204157 0.163074815 -1.9692e-06 6.57239e-05 5.91213e-05 9.39733e-05 -0.017339243 -0.02679572
455952500.0 -0.2877624488 0.164360444 1.86718e-05 2.08596e-05 6.352e-06 7.14308e-05 -0.0175500497 -0.02689129
459700000.0 -0.2869409403 0.1655291413 3.65356e-05 0.0001281224 2.43838e-05 6.798e-05 -0.0177952608 -0.0270721793
463447500.0 -0.2864453576 0.1668647081 2.98835e-05 6.5836e-06 3.0408e-06 6.49184e-05 -0.0181365484 -0.0272033099
467195000.0 -0.2856101077 0.1679973845 7.84441e-05 -4.301e-06 0.0001091811 6.60009e-05 -0.0183848945 -0.0271831952
470942500.0 -0.2848583747 0.1691554859 2.88792e-05 2.95915e-05 2.59804e-05 5.21735e-05 -0.0184884153 -0.02726998
474690000.0 -0.2842988314 0.1705056394 7.36203e-05 -1.60048e-05 3.90803e-05 7.43774e-05 -0.0188046706 -0.0273368208
478437500.0 -0.2834732777 0.1715426279 3.4458e-05 7.21069e-05 -1.06968e-05 3.15249e-05 -0.0191631713 -0.0274744712
482185000.0 -0.2826875764 0.1728488982 5.56927e-05 4.53896e-05 2.80987e-05 2.35308e-05 -0.0194713437 -0.0275680454
485932500.0 -0.2820497591 0.1738885017 8.57167e-05 2.52357e-05 6.31021e-05 3.09158e-05 -0.0197615711 -0.0276111032
489680000.0 -0.2812606707 0.1752183848 8.60476e-05 0.0001045613 0.0001231127 6.95014e-05 -0.0201715801 -0.0277166524
493427500.0 -0.280670778 0.1763931909 7.11549e-05 6.32013e-05 6.30022e-05 -4.47527e-05 -0.0204569244 -0.0278286321
497175000.0 -0.2800167226 0.1773703037 2.57779e-05 2.41516e-05 3.09552e-05 1.8e-06 -0.0206797782 -0.0279715917
500922500.0 -0.2791521395 0.1785377565 0.0001341016 7.09332e-05 1.2626e-05 2.447e-07 -0.0210466357 -0.0278845738
504670000.0 -0.2785114943 0.1797974855 0.0001121737 1.8227e-05 5.5753e-06 -7.9309e-06 -0.0214569372 -0.0281169672
508417500.0 -0.2776532384 0.1808444397 2.95283e-05 1.94854e-05 0.0001083951 3.3144e-06 -0.0217308369 -0.0283347339
512165000.0 -0.2771245044 0.1818314678 6.34848e-05 8.99832e-05 5.05808e-05 2.08008e-05 -0.0220652955 -0.0283911637
515912500.0 -0.2762982161 0.1829694438 1.85706e-05 -1.36847e-05 6.70781e-05 3.28638e-05 -0.0224582484 -0.028503781
519660000.0 -0.2755585449 0.1841253126 2.62625e-05 6.82587e-05 7.10681e-05 0.0001121249 -0.0227013173 -0.0285713536
523407500.0 -0.2748054118 0.1850658609 7.82827e-05 7.16917e-05 8.04822e-05 4.29918e-05 -0.0230449456 -0.0287836576
527155000.0 -0.2739177277 0.1861554431 5.5133e-05 4.92803e-05 4.76355e-05 3.44111e-05 -0.0233930443 -0.028999709
530902500.0 -0.2731234329 0.1872338678 1.45167e-05 -7.93287e-05 3.94097e-05 6.21006e-05 -0.0236204455 -0.029037258
534650000.0 -0.2723312357 0.1881630785 6.05489e-05 6.93793e-05 0.0001343034 4.50103e-05 -0.0240999145 -0.0291275887
538397500.0 -0.2716679013 0.1893594045 3.64e-05 6.65008e-05 5.61787e-05 -1.404e-06 -0.0243239796 -0.0293531751
542145000.0 -0.2707812487 0.1902331388 6.31701e-05 7.56275e-05 3.3946e-05 1.64812e-05 -0.0245796445 -0.0294330725
545892500.0 -0.2699114832 0.1911503418 7.04786e-05 -1.8958e-05 3.53904e-05 3.3665e-06 -0.0249286509 -0.0296089734
549640000.0 -0.2691910313 0.1922877282 4.23859e-05 1.51256e-05 6.16538e-05 2.37535e-05 -0.0253044149 -0.0297060009
553387500.0 -0.2680962263 0.1932587443 4.82551e-05 -1.11612e-05 5.02343e-05 4.56574e-05 -0.0256259445 -0.0297857076
557135000.0 -0.2672592146 0.194337123 6.66256e-05 7.2515e-05 7.00428e-05 1.27909e-05 -0.0258962791 -0.0298926647
560882500.0 -0.2664076107 0.1953670887 -9.877e-07 -6.08495e-05 7.38091e-05 -7.1221e-06 -0.0261930539 -0.0299751245
564630000.0 -0.2654942011 0.1963115181 6.922e-05 7.29433e-05 6.23531e-05 6.29866e-05 -0.0265594252 -0.0301473784
568377500.0 -0.264576245 0.1974746868 4.00818e-05 1.64331e-05 4.98265e-05 2.0844e-05 -0.0267052933 -0.0302113406
572125000.0 -0.2635148768 0.1984956528 -1.37639e-05 2.81693e-05 3.521e-07 4.13838e-05 -0.0270910727 -0.0303394554
575872500.0 -0.2625307322 0.1994276203 6.07191e-05 4.3581e-06 6.03202e-05 6.10297e-05 -0.0273217925 -0.0305189954
579620000.0 -0.2616904465 0.200367089 1.82154e-05 5.33656e-05 6.50037e-05 2.8561e-05 -0.0277176755 -0.0305252664
583367500.0 -0.2606860767 0.2016318701 -2.22378e-05 -2.31396e-05 -1.0442e-06 1.65008e-05 -0.0279710632 -0.0305788759
587115000.0 -0.2597069549 0.2027450876 7.10966e-05 7.39487e-05 6.35716e-05 4.58118e-05 -0.0282012065 -0.0306596963
590862500.0 -0.2587185466 0.2036574372 3.74816e-05 1.26825e-05 1.525e-06 1.69925e-05 -0.0285825892 -0.0307758251
594610000.0 -0.2576515618 0.2047848325 1.07835e-05 8.3549e-06 6.2095e-05 2.37017e-05 -0.0289493222 -0.0307920971
598357500.0 -0.2567657264 0.2057269482 2.51776e-05 2.9933e-05 4.80055e-05 6.93282e-05 -0.0291428022 -0.0308690713
602105000.0 -0.2556476371 0.2069371549 7.05245e-05 5.0221e-05 7.0159e-06 6.42053e-05 -0.0295039288 -0.0309911233
605852500.0 -0.254822002 0.2079297139 -3.54012e-05 0.0001140998 1.87692e-05 8.44444e-05 -0.0297529657 -0.0310459226
609600000.0 -0.2538672408 0.2090026543 3.61706e-05 3.83037e-05 2.3979e-05 -8.2334e-06 -0.0301492312 -0.0309968951
613347500.0 -0.2526824516 0.210192735 6.54347e-05 4.13495e-05 7.42986e-05 4.70355e-05 -0.0305079456 -0.0310715364
617095000.0 -0.2515689746 0.2113003795 2.73145e-05 5.875e-06 5.90461e-05 4.56918e-05 -0.0307343147 -0.0311747734
620842500.0 -0.25071584 0.2123819885 5.12513e-05 2.02058e-05 4.96681e-05 5.57323e-05 -0.0311684975 -0.0310647132
624590000.0 -0.2497873273 0.2135486374 7.20566e-05 6.62768e-05 4.51705e-05 5.47204e-05 -0.0314786078 -0.031145394
628337500.0 -0.2487877959 0.214691404 8.33625e-05 2.07155e-05 3.55817e-05 4.0185e-05 -0.0318243037 -0.0311574954
632085000.0 -0.2479536035 0.2157770818 0.0001044145 0.0001179764 7.06646e-05 4.75444e-05 -0.0322465818 -0.0312766996
635832500.0 -0.2469118918 0.2169512684 8.30952e-05 0.0001106341 7.61835e-05 6.47373e-05 -0.0325469537 -0.0312888699
639580000.0 -0.2458670919 0.2180255651 4.71954e-05 8.96461e-05 0.0001114046 4.35454e-05 -0.032931475 -0.0314039056
643327500.0 -0.2448907237 0.2191999676 4.9806e-06 0.0001262145 8.7947e-05 2.89395e-05 -0.0331361758 -0.0313571484
647075000.0 -0.2441467796 0.2202447547 4.681e-05 2.86775e-05 5.73418e-05 6.94315e-05 -0.0336657287 -0.0313285835
650822500.0 -0.2430682612 0.2211137131 3.28395e-05 9.83749e-05 4.50815e-05 -1.402e-07 -0.0339810752 -0.0315639909
654570000.0 -0.2420424238 0.2224139762 2.34258e-05 1.25008e-05 3.85266e-05 1.24057e-05 -0.0343044773 -0.0314334492
