!	Fieldfox Controller
!	Chapman University - Class ENG398
!	Introduction to RF - DMG (2024)
! 
!Created with skrf (http://scikit-rf.org).
# Hz S RI R 50.0 
!freq ReS11 ImS11 ReS21 ImS21 ReS12 ImS12 ReS22 ImS22
10000000.0 0.9999453697 -0.0131510371 3.08114e-05 -5.301e-07 -9.0672e-06 -1.58934e-05 -0.9979649658 0.0134867641
13747500.0 0.9999930819 -0.0180415174 -6.0844e-06 -4.38011e-05 1.8651e-05 -3.45779e-05 -0.9976000664 0.0185750394
17495000.0 0.9992332682 -0.0228735268 -3.67481e-05 6.58381e-05 3.78939e-05 -3.34604e-05 -0.9972999073 0.0233938297
21242500.0 0.9997558336 -0.027654089 -2.06126e-05 -1.4784e-06 1.24867e-05 1.66545e-05 -0.9972299345 0.0276931334
24990000.0 0.9996502159 -0.0321721525 -3.67447e-05 -1.41532e-05 9.71913e-05 5.22548e-05 -0.9970745272 0.0324495838
28737500.0 0.9990602011 -0.0373946072 -2.8837e-06 2.2951e-05 5.33073e-05 -3.90781e-05 -0.9962356064 0.0373831082
32485000.0 0.9987961391 -0.0421961572 -5.48954e-05 1.89398e-05 7.3558e-06 1.98665e-05 -0.9964185431 0.0422195302
36232500.0 0.9984086627 -0.0466304697 -1.103e-06 -2.46e-05 -2.81377e-05 8.527e-06 -0.9957240549 0.0468589513
39980000.0 0.9984761402 -0.0516787853 -1.45558e-05 2.6759e-05 -4.40492e-05 -2.36915e-05 -0.9955472047 0.051138765
43727500.0 0.9979266672 -0.0563500026 -9.3588e-06 3.5718e-06 1.48783e-05 -2.87083e-05 -0.9954242218 0.0558908574
47475000.0 0.9977531508 -0.0612347797 -2.2705e-05 3.65133e-05 -1.54518e-05 5.54279e-05 -0.994695908 0.0607050661
51222500.0 0.9972891653 -0.0659894296 2.47825e-05 -3.8574e-05 6.3696e-06 -3.22807e-05 -0.99446246 0.0652442726
54970000.0 0.9968627602 -0.0708017253 4.27092e-05 -1.3172e-06 2.23829e-05 3.0776e-05 -0.9940862223 0.0699460032
58717500.0 0.9964671319 -0.0755581921 -5.7831e-06 -3.6218e-06 -2.94765e-05 -1.13382e-05 -0.9937051796 0.0741788775
62465000.0 0.9959289233 -0.0804780688 -3.12299e-05 9.3247e-06 2.78773e-05 2.7858e-06 -0.9932830832 0.0790967956
66212500.0 0.995668925 -0.0851576207 3.96216e-05 3.65753e-05 -4.68305e-05 3.13313e-05 -0.9927033107 0.0832871398
69960000.0 0.9953249576 -0.0899382929 -3.60052e-05 5.00059e-05 2.91508e-05 -5.0179e-06 -0.9920917437 0.0877163234
73707500.0 0.9948001964 -0.094963749 1.15533e-05 3.34919e-05 -1.439e-07 -4.86896e-05 -0.991803681 0.0922706415
77455000.0 0.9942261358 -0.0998311227 -1.00563e-05 1.82822e-05 6.5171e-06 1.04668e-05 -0.9910501592 0.0966379652
81202500.0 0.9938549881 -0.1042785481 -5.52884e-05 7.71885e-05 3.0678e-06 2.34956e-05 -0.9907860932 0.1013190655
84950000.0 0.9930284197 -0.1090127053 3.02912e-05 0.0001065068 0.000115584 0.0001170482 -0.9895232454 0.1060435249
88697500.0 0.9925245825 -0.1137426338 4.36276e-05 -6.45093e-05 6.89234e-05 -3.2075e-05 -0.9889688003 0.110294825
92445000.0 0.9922195121 -0.1187838898 2.37697e-05 -8.27781e-05 5.4614e-06 1.86906e-05 -0.9886541187 0.1148466143
96192500.0 0.9916515265 -0.1235187579 -2.70133e-05 1.12623e-05 4.772e-06 -0.0001037651 -0.9878589306 0.1195406971
99940000.0 0.9909133901 -0.1279736676 -2.8027e-05 -3.50925e-05 1.913e-06 -6.28717e-05 -0.9874822662 0.1236257345
103687500.0 0.9903755276 -0.1328070834 2.18808e-05 -2.92941e-05 1.80146e-05 -2.99184e-05 -0.9865050075 0.1284338668
107435000.0 0.9895626314 -0.1374487123 -4.49221e-05 2.7673e-06 -4.5899e-06 2.35201e-05 -0.9858074597 0.1327831342
111182500.0 0.9892068793 -0.142202399 2.43982e-05 -5.9877e-06 -1.49297e-05 -3.05841e-05 -0.984851081 0.1374078033
114930000.0 0.9880978193 -0.1470085608 -1.87518e-05 2.73998e-05 3.3054e-06 -6.98124e-05 -0.9839297313 0.1418861164
118677500.0 0.9876446005 -0.1517431475 2.43134e-05 4.33084e-05 3.563e-07 1.0653e-06 -0.9833330404 0.1459280716
122425000.0 0.9867819823 -0.1560950086 -2.14629e-05 -5.83522e-05 -3.33685e-05 1.03507e-05 -0.9825502775 0.1508495641
126172500.0 0.9858209869 -0.1611226715 1.70401e-05 -1.1527e-05 8.4775e-06 -2.92551e-05 -0.9816089515 0.1553171168
129920000.0 0.9853406232 -0.1656601721 6.817e-06 -6.1273e-06 2.52875e-05 2.30318e-05 -0.9805293767 0.1599311095
133667500.0 0.9844056216 -0.1705469256 -1.60969e-05 -1.76125e-05 3.5741e-06 6.02216e-05 -0.9795542422 0.1641455968
137415000.0 0.9839216354 -0.1752760504 2.52175e-05 5.60208e-05 6.32287e-05 -2.37108e-05 -0.9789498176 0.1687398894
141162500.0 0.982878269 -0.1794937841 -2.84295e-05 6.32826e-05 8.82955e-05 1.03135e-05 -0.9778415412 0.1731759837
144910000.0 0.9819818337 -0.1843966923 -1.37305e-05 -5.17364e-05 -7.8744e-06 2.43576e-05 -0.9773044282 0.1774357431
148657500.0 0.981151894 -0.1888946431 3.41381e-05 -8.586e-05 -9.1269e-06 4.5823e-06 -0.9764071985 0.1822150582
152405000.0 0.9800980764 -0.1933558006 2.4943e-05 -3.51642e-05 3.10654e-05 2.64932e-05 -0.9751870257 0.1866989322
156152500.0 0.9792837996 -0.1981079735 -2.1981e-05 2.68822e-05 -2.70243e-05 3.55682e-05 -0.9742769343 0.191368128
159900000.0 0.9784126737 -0.2027735589 1.31919e-05 -6.32981e-05 -4.18695e-05 4.37373e-05 -0.9736239374 0.1958021611
163647500.0 0.9769881866 -0.207808437 1.0383e-05 -4.62386e-05 -1.73553e-05 7.7621e-06 -0.9724996061 0.2000931551
167395000.0 0.9762918857 -0.2123982003 -1.15356e-05 4.65078e-05 -7.65116e-05 -2.937e-07 -0.9713049774 0.2042874655
171142500.0 0.9748199675 -0.2166006307 -1.4842e-05 -0.0001057492 -1.97182e-05 -4.9469e-06 -0.9702630135 0.208832996
174890000.0 0.9735741319 -0.2216871017 -2.11479e-05 3.35097e-05 -4.04596e-05 -7.85188e-05 -0.9693875867 0.2134134997
178637500.0 0.972730402 -0.2261648944 5.65835e-05 -3.848e-07 5.4311e-06 -5.5022e-06 -0.9684172093 0.2178081238
182385000.0 0.9715194845 -0.23081062 -8.7349e-06 -1.00255e-05 -3.26082e-05 9.854e-07 -0.9674856669 0.221800033
186132500.0 0.9706030131 -0.2357555697 1.35522e-05 1.57051e-05 2.42817e-05 -4.57747e-05 -0.9667162203 0.2266261863
189880000.0 0.9693666257 -0.2403515723 -2.58916e-05 5.3227e-06 -5.25365e-05 1.56878e-05 -0.9655724787 0.231069539
193627500.0 0.9677532567 -0.2452308754 -9.9436e-06 2.46335e-05 -1.19239e-05 3.06764e-05 -0.9643714743 0.2354469412
197375000.0 0.967006081 -0.2497036137 1.15086e-05 9.044e-06 2.76769e-05 3.88201e-05 -0.9627678324 0.2394520549
201122500.0 0.9657853657 -0.254054477 -3.7408e-06 -2.51277e-05 -9.58e-07 -5.15878e-05 -0.9621513962 0.2442683125
204870000.0 0.9644398659 -0.2587236724 1.08309e-05 2.28411e-05 3.8999e-06 2.14466e-05 -0.9610585701 0.24838309
208617500.0 0.9628972191 -0.2632983161 1.38454e-05 -4.3865e-06 6.7696e-06 2.84323e-05 -0.9597638027 0.2527256797
212365000.0 0.9620253077 -0.2684636335 -1.36311e-05 -3.67144e-05 -1.59924e-05 -4.00865e-05 -0.9586554651 0.2570501768
216112500.0 0.9605588318 -0.2728011156 -6.8659e-06 -1.24503e-05 -3.08872e-05 -2.14571e-05 -0.9576390457 0.2613520761
219860000.0 0.9591057615 -0.2776046738 1.23583e-05 1.71856e-05 1.05771e-05 7.19952e-05 -0.9561109873 0.2656011997
223607500.0 0.9576009587 -0.2823361268 1.39226e-05 -1.915e-05 7.7903e-06 3.1118e-06 -0.9551614584 0.2699230729
227355000.0 0.9561653788 -0.2868428839 -9.4823e-06 -1.35703e-05 1.56581e-05 -4.55904e-05 -0.9537137428 0.2740433029
231102500.0 0.9548939643 -0.291695397 2.85476e-05 1.00107e-05 -1.11118e-05 1.9433e-06 -0.952366808 0.278248003
234850000.0 0.953646103 -0.2960250514 1.72676e-05 2.80165e-05 -2.32624e-05 1.60755e-05 -0.9509877932 0.2825862282
238597500.0 0.9519791611 -0.3007165344 -5.8288e-05 -3.29488e-05 -3.44404e-05 -3.4743e-06 -0.9494022294 0.2870363875
242345000.0 0.9503729043 -0.3052018253 1.39873e-05 -4.46968e-05 2.09021e-05 8.8586e-06 -0.9484678419 0.29063667
246092500.0 0.9487369999 -0.3100865452 6.0623e-06 6.3083e-06 5.46229e-05 -5.9047e-06 -0.9469738036 0.2953066748
249840000.0 0.9473957782 -0.3142859748 3.34262e-05 -6.93246e-05 3.5852e-06 6.2082e-06 -0.9453151804 0.2994849204
253587500.0 0.9459878722 -0.3187946479 -5.8099e-06 3.5044e-05 -4.31909e-05 3.94241e-05 -0.9438894278 0.3037712707
257335000.0 0.9444116497 -0.3236168758 1.29176e-05 -1.26016e-05 -9.8245e-06 -9.6979e-06 -0.9421340455 0.3075535094
261082500.0 0.9429042546 -0.3281846446 -5.1536e-06 2.12093e-05 3.83513e-05 -7.6756e-06 -0.9406639963 0.311944104
264830000.0 0.9413234977 -0.3327096485 -3.0593e-06 9.35871e-05 -5.77204e-05 -1.80468e-05 -0.9394628989 0.3162768777
268577500.0 0.939485532 -0.3368749513 1.98846e-05 -3.60435e-05 2.94602e-05 -2.89791e-05 -0.937802735 0.3201568264
272325000.0 0.9381572409 -0.3415898519 -2.2909e-05 -3.89081e-05 4.07862e-05 -1.38731e-05 -0.9361326721 0.32435389
276072500.0 0.9366767234 -0.3462184722 2.6678e-06 -5.43442e-05 3.17936e-05 3.78657e-05 -0.9347406775 0.3289147981
279820000.0 0.934782492 -0.3504888987 9.7674e-06 -2.41416e-05 -2.05354e-05 1.0554e-06 -0.9327644934 0.3328251635
283567500.0 0.9332602966 -0.3547699905 1.69059e-05 2.98579e-05 7.0899e-06 4.107e-06 -0.9312230938 0.3371340421
287315000.0 0.9315944231 -0.3590515674 -4.13545e-05 -5.16056e-05 7.62547e-05 -9.6218e-06 -0.9294635039 0.3414749281
291062500.0 0.9298472264 -0.3639134717 -1.69638e-05 2.64607e-05 8.58624e-05 -4.34793e-05 -0.9281815321 0.3458170803
294810000.0 0.9277478616 -0.3678557577 -5.40446e-05 1.81726e-05 -7.33574e-05 -5.53988e-05 -0.9259724749 0.3497761407
298557500.0 0.9263237817 -0.3722671975 -7.56432e-05 -7.12455e-05 -4.45473e-05 -3.9974e-06 -0.9247665004 0.3543010341
302305000.0 0.9244271816 -0.3767134278 -2.9476e-06 -7.08098e-05 4.03024e-05 -3.23773e-05 -0.9232227735 0.3587132357
306052500.0 0.922386587 -0.380910794 -4.48408e-05 -1.46548e-05 1.39959e-05 2.8871e-06 -0.9212578527 0.3626921325
309800000.0 0.9208104187 -0.3853109744 -4.25503e-05 -5.06704e-05 2.3805e-05 -7.3107e-06 -0.9192989611 0.3672127448
313547500.0 0.9186780099 -0.3894577923 2.06653e-05 -4.34249e-05 2.387e-07 -3.20377e-05 -0.9178870671 0.3714247977
317295000.0 0.9172343115 -0.3937915537 -1.5562e-05 3.23213e-05 6.273e-07 1.96377e-05 -0.9159932744 0.3754601535
321042500.0 0.9150957003 -0.3982126596 -5.72684e-05 -8.98796e-05 -5.54606e-05 7.36485e-05 -0.9144240925 0.3796500319
324790000.0 0.9130653969 -0.4023146912 -2.79745e-05 -5.74979e-05 -2.22422e-05 1.27794e-05 -0.9122482536 0.3840782311
328537500.0 0.9110236743 -0.4068776315 -2.57048e-05 -5.18753e-05 -3.84155e-05 5.1745e-06 -0.9107500708 0.3880224824
332285000.0 0.9094883131 -0.411255944 -8.55437e-05 -3.06442e-05 -4.83618e-05 4.37332e-05 -0.9087989161 0.3922795572
336032500.0 0.9072998271 -0.4152504287 -1.478e-07 -2.2261e-05 -9.32258e-05 -4.911e-07 -0.9070297856 0.3966622114
339780000.0 0.905491227 -0.4197700354 1.27777e-05 -4.80363e-05 -4.95537e-05 -2.1117e-05 -0.9052538221 0.4004228566
343527500.0 0.9032089024 -0.4242352621 -2.75201e-05 -1.69658e-05 -3.45204e-05 -1.28531e-05 -0.9032978871 0.4048756184
347275000.0 0.9009515526 -0.4281422167 -4.97166e-05 -2.951e-07 -3.8566e-05 2.366e-06 -0.9014718265 0.408892485
351022500.0 0.8988476275 -0.4329189581 -4.90076e-05 3.9496e-05 -4.20029e-05 -1.64511e-05 -0.8998916894 0.4131454395
354770000.0 0.8968708701 -0.4368465595 -3.74532e-05 6.0085e-05 -3.93958e-05 1.89352e-05 -0.8979371407 0.4172372074
358517500.0 0.894640271 -0.4412546326 -3.82349e-05 3.09863e-05 -6.00001e-05 -3.823e-07 -0.8956443044 0.4210652771
362265000.0 0.8922904911 -0.4454974339 -6.29227e-05 -4.62656e-05 -3.341e-06 1.725e-05 -0.8937135403 0.4250712321
366012500.0 0.8903365273 -0.4502571125 -6.7979e-05 -1.15015e-05 -1.1169e-05 1.95025e-05 -0.8919302499 0.4295868444
369760000.0 0.8879011786 -0.4540215461 -7.41652e-05 3.31675e-05 -5.29776e-05 3.24854e-05 -0.8897794491 0.4334972918
373507500.0 0.8859008821 -0.4586576776 -6.78225e-05 3.30871e-05 -2.819e-05 -2.92035e-05 -0.887458282 0.4373773769
377255000.0 0.8835980421 -0.4626963828 -2.67435e-05 3.57916e-05 -2.62499e-05 1.95311e-05 -0.8860906336 0.4409835848
381002500.0 0.881505376 -0.4671105132 -4.03828e-05 1.8429e-06 -2.14911e-05 -1.91339e-05 -0.8837174559 0.4450394229
384750000.0 0.8791592218 -0.4713165267 1.85257e-05 5.96409e-05 3.96254e-05 1.35724e-05 -0.8815754496 0.4488616032
388497500.0 0.8766914226 -0.4755374875 8.4589e-06 -6.9992e-06 -5.2476e-05 2.181e-06 -0.8796181864 0.4527515295
392245000.0 0.8740535658 -0.4798932978 -2.8361e-06 2.77756e-05 4.94419e-05 5.64005e-05 -0.8774063324 0.4565385968
395992500.0 0.8718887679 -0.4838332541 -4.91631e-05 -2.71e-08 -2.16616e-05 5.98e-07 -0.875424105 0.4603422274
399740000.0 0.8699468171 -0.4881608955 9.1962e-06 1.64278e-05 4.3504e-06 2.68444e-05 -0.8731796224 0.4644606687
403487500.0 0.8671964137 -0.4924242282 6.51733e-05 -3.66736e-05 2.13035e-05 6.67213e-05 -0.8712715418 0.4679750695
407235000.0 0.8648014353 -0.4965153822 -9.7431e-06 9.302e-07 -2.7233e-05 -7.116e-07 -0.8688606913 0.4719145606
410982500.0 0.862688487 -0.5009530058 -1.08339e-05 -3.72467e-05 4.12715e-05 5.43358e-05 -0.8665620784 0.4755816666
414730000.0 0.8599566203 -0.5046962281 -2.09683e-05 -5.28663e-05 6.327e-07 2.79676e-05 -0.8643393978 0.47950031
418477500.0 0.8578346928 -0.5087108178 -6.3212e-06 -6.34112e-05 -7.1138e-06 1.57932e-05 -0.8625930564 0.4831371448
422225000.0 0.8552175085 -0.5131517595 -9.5975e-06 1.49667e-05 1.07264e-05 3.843e-07 -0.8599787971 0.4871780043
425972500.0 0.8524667004 -0.516792075 -2.64068e-05 -4.94116e-05 -3.4253e-06 3.15452e-05 -0.8576422377 0.4909798707
429720000.0 0.8501868855 -0.5208467162 -4.0428e-06 1.56728e-05 2.17552e-05 -9.5359e-06 -0.855525674 0.4945431074
433467500.0 0.8475371142 -0.5252542177 3.96106e-05 6.81958e-05 -6.4958e-06 9.3028e-06 -0.8531427495 0.4985248491
437215000.0 0.8446896489 -0.5294220409 -1.43937e-05 9.33819e-05 1.32132e-05 1.96783e-05 -0.8505229633 0.5024319904
440962500.0 0.8425383093 -0.5325781773 9.0144e-06 -2.14115e-05 -1.4624e-05 1.3841e-06 -0.8480214159 0.5059772488
444710000.0 0.8399684798 -0.5368564569 -2.602e-07 -3.94939e-05 6.97411e-05 -1.38136e-05 -0.8460947473 0.5100340576
448457500.0 0.8373950572 -0.5408599329 3.01584e-05 7.00354e-05 3.0585e-06 -2.74916e-05 -0.844189017 0.5136708654
452205000.0 0.8347941222 -0.5449237067 4.00102e-05 0.0001224098 7.735e-07 -4.20304e-05 -0.8411625596 0.5176702914
455952500.0 0.8320864382 -0.5490724735 -1.403e-06 1.99643e-05 1.50637e-05 3.00721e-05 -0.8389311119 0.5213817926
459700000.0 0.8293133733 -0.5526038847 5.56582e-05 -1.55486e-05 5.73351e-05 -9.8179e-06 -0.836066788 0.5254333794
463447500.0 0.8267565199 -0.5567265348 4.5179e-05 -4.6485e-06 1.65129e-05 6.51106e-05 -0.8339427238 0.5291720645
467195000.0 0.8241683036 -0.5602221599 6.06574e-05 9.9367e-06 7.13978e-05 5.10553e-05 -0.8313326408 0.5329846731
470942500.0 0.8213625765 -0.5640764858 7.76511e-05 3.17967e-05 3.90908e-05 -3.48315e-05 -0.8286188629 0.5366801239
474690000.0 0.8189263122 -0.5679287714 2.58681e-05 -1.55506e-05 0.000114683 -3.54396e-05 -0.8265235463 0.540502963
478437500.0 0.816186543 -0.5720791276 4.21238e-05 3.3537e-06 7.15539e-05 -5.63927e-05 -0.823815218 0.5440372601
482185000.0 0.8133983696 -0.5755926997 5.4633e-06 -3.86771e-05 2.9883e-05 -1.63579e-05 -0.8211715075 0.547987176
485932500.0 0.8105881736 -0.5792877768 8.09128e-05 3.17045e-05 -2.3822e-06 -3.08964e-05 -0.81875628 0.5520026497
489680000.0 0.8077631113 -0.5832487493 -1.6026e-06 -8.88149e-05 6.72721e-05 -6.92239e-05 -0.8158354521 0.5557835084
493427500.0 0.8049603075 -0.5874006591 3.29889e-05 1.15619e-05 1.43409e-05 -6.19808e-05 -0.8132241683 0.5594607228
497175000.0 0.8022501859 -0.5910533575 2.57199e-05 -8.63313e-05 5.5759e-06 -5.6984e-05 -0.8111425554 0.5629887114
500922500.0 0.7993960251 -0.594747527 3.02595e-05 -6.75312e-05 4.91683e-05 -7.72844e-05 -0.8081609456 0.566814839
504670000.0 0.7966250358 -0.5986371196 6.4466e-06 -3.13296e-05 6.7387e-05 -4.49426e-05 -0.8057203866 0.5707414275
508417500.0 0.7935969623 -0.6024656663 8.1486e-06 -3.46677e-05 2.50122e-05 1.2577e-05 -0.8025316414 0.5742893384
512165000.0 0.7906647107 -0.6063351078 5.5719e-06 -5.5952e-05 4.52237e-05 -1.46299e-05 -0.8001785435 0.577895962
515912500.0 0.7877935606 -0.610042393 4.64867e-05 4.3842e-06 2.21687e-05 -1.13887e-05 -0.7978187111 0.5814893067
519660000.0 0.7849472332 -0.6137839403 -1.43376e-05 -0.0001089347 4.46342e-05 -7.21571e-05 -0.7945469507 0.5848482003
523407500.0 0.7820975885 -0.6175894752 1.23406e-05 -3.39191e-05 0.000108009 -2.995e-07 -0.7923225417 0.5886565871
527155000.0 0.7791414958 -0.621289988 -2.24754e-05 -6.91324e-05 -4.80949e-05 -5.1161e-05 -0.7896859486 0.5918725356
530902500.0 0.7758098059 -0.6251460785 -3.79426e-05 -9.61917e-05 3.35862e-05 -7.68852e-05 -0.7869745754 0.5952244687
534650000.0 0.7729779772 -0.6284673318 3.03225e-05 -4.37614e-05 7.64059e-05 3.6092e-06 -0.7844003908 0.5987259029
538397500.0 0.7699224027 -0.6322995382 6.87448e-05 -5.8171e-05 1.42592e-05 -2.53659e-05 -0.7816958766 0.6023593424
542145000.0 0.7667012788 -0.6364694869 2.45668e-05 -7.64702e-05 4.311e-07 -7.41095e-05 -0.7785204799 0.6054550453
545892500.0 0.7635297855 -0.6398435149 -7.0518e-05 -3.46349e-05 5.5092e-06 -6.25021e-05 -0.775887993 0.6090559791
549640000.0 0.7605030748 -0.6438096195 -1.34526e-05 -8.60986e-05 -2.497e-05 -4.55501e-05 -0.7734655947 0.612286334
553387500.0 0.7573572699 -0.6473333916 -1.70753e-05 -5.63341e-05 -4.9559e-06 -8.29375e-05 -0.7708555377 0.6156636644
557135000.0 0.7543755373 -0.6513489759 -4.44252e-05 3.12753e-05 -5.97067e-05 -6.3827e-05 -0.7679118704 0.6187742247
560882500.0 0.7509193332 -0.6546342196 2.2344e-06 4.4449e-06 -1.09004e-05 -9.74377e-05 -0.765042288 0.6224025466
564630000.0 0.7480545693 -0.6580273155 -2.31322e-05 -2.85237e-05 -4.93e-05 -2.64206e-05 -0.762271276 0.625582584
568377500.0 0.7450886116 -0.6621198927 -1.14308e-05 -6.9014e-06 -8.85037e-05 -3.07698e-05 -0.7592408611 0.6288461055
572125000.0 0.7419100582 -0.6655429315 -3.869e-06 -3.63738e-05 -2.91798e-05 -2.61445e-05 -0.7566832666 0.6321794963
575872500.0 0.7382853753 -0.6686861444 -1.50564e-05 2.05702e-05 -7.26247e-05 -3.21492e-05 -0.7537586885 0.6356379571
579620000.0 0.7351431073 -0.6723128585 -3.19504e-05 1.89333e-05 -1.30874e-05 -3.26621e-05 -0.7511102574 0.6386189344
583367500.0 0.7316365076 -0.6758329272 -2.8508e-05 -1.3632e-05 -6.63926e-05 -1.36047e-05 -0.7483035915 0.6419642947
587115000.0 0.7287507706 -0.6794647373 -1.22422e-05 -1.31627e-05 -4.5903e-05 -2.19386e-05 -0.7451620836 0.6451849256
590862500.0 0.725317072 -0.6828565428 -7.48044e-05 -1.96295e-05 3.06902e-05 -5.5056e-06 -0.7422827694 0.6485405991
594610000.0 0.7217260334 -0.6859402979 -1.6996e-05 2.42192e-05 1.83701e-05 -4.62093e-05 -0.7391106438 0.6518615281
598357500.0 0.7190010134 -0.6894424572 3.1388e-06 -2.07535e-05 1.0575e-05 4.98079e-05 -0.7362461616 0.6551405016
602105000.0 0.7154104005 -0.692943052 4.85122e-05 3.43047e-05 -4.48625e-05 7.9665e-06 -0.7332020377 0.6581522336
605852500.0 0.7121947275 -0.6963824025 1.85453e-05 -2.86145e-05 -7.7219e-06 -1.43477e-05 -0.7302842006 0.6617137348
609600000.0 0.7088067025 -0.6994323582 3.1291e-06 1.95997e-05 -4.44764e-05 -7.35851e-05 -0.7275515825 0.6649296684
613347500.0 0.7052163129 -0.7028460613 -8.83e-06 -2.50765e-05 3.89898e-05 3.22015e-05 -0.7245805382 0.6681531205
617095000.0 0.7020265122 -0.705841194 -1.45599e-05 -5.26721e-05 2.89809e-05 1.763e-07 -0.7209887919 0.6714563524
620842500.0 0.6987501061 -0.7090452621 -8.5721e-06 9.5286e-06 7.2204e-06 2.49753e-05 -0.718193996 0.6746819128
624590000.0 0.6956296446 -0.7126794985 6.2751e-06 9.1874e-06 7.53706e-05 5.69402e-05 -0.7148800839 0.6778622063
628337500.0 0.6925248839 -0.7156434123 1.4882e-05 -1.65155e-05 2.51647e-05 3.40383e-05 -0.7116383615 0.6811992833
632085000.0 0.6886832498 -0.7191771454 4.189e-06 1.12312e-05 2.60376e-05 1.32452e-05 -0.708375837 0.684274046
635832500.0 0.6854664194 -0.7222785397 4.39146e-05 -4.01726e-05 8.20265e-05 5.48271e-05 -0.7052479961 0.6875465694
639580000.0 0.6821186585 -0.7247334371 6.92112e-05 2.04122e-05 2.43077e-05 1.27984e-05 -0.7019536762 0.6910087492
643327500.0 0.6786089013 -0.7283262477 3.57321e-05 4.24333e-05 1.76669e-05 -3.56785e-05 -0.6988339185 0.6939977357
647075000.0 0.6755902397 -0.7316218344 2.46782e-05 2.22896e-05 4.38622e-05 2.63519e-05 -0.695598011 0.6973365821
650822500.0 0.6720288883 -0.7348984545 -8.306e-07 3.53792e-05 5.89223e-05 -1.62988e-05 -0.6923640125 0.7001981758
654570000.0 0.668441365 -0.7375697256 5.07279e-05 -2.9603e-06 7.31522e-05 2.12063e-05 -0.6889343451 0.7034959977
