!	Fieldfox Controller
!	Chapman University - Class ENG398
!	Introduction to RF - DMG (2024)
! 
!Created with skrf (http://scikit-rf.org).
# Hz S RI R 50.0 
!freq ReS11 ImS11 ReS21 ImS21 ReS12 ImS12 ReS22 ImS22
10000000.0 0.000679192 3.10301e-05 0.9992461947 -0.0126646382 0.9989314492 -0.012693213 0.0006794836 -0.0001538999
13747500.0 0.0006681574 -6.3577e-05 0.9989910232 -0.0172315051 0.9988413426 -0.0176214819 0.0006737873 -0.0002513449
17495000.0 0.0007461841 -3.01408e-05 0.9987866108 -0.02187037 0.9988118061 -0.0220620314 0.0007005343 -0.0004054577
21242500.0 0.0007949527 -0.0001810795 0.9984428589 -0.0267914964 0.9985814938 -0.026888986 0.0008017142 -0.0005388412
24990000.0 0.000773203 -0.0004586319 0.9982053162 -0.0309964541 0.9981684813 -0.0314049638 0.00081623 -0.000690374
28737500.0 0.000852403 -0.0003831509 0.9982785966 -0.0357165374 0.9981655594 -0.0359815603 0.0007296074 -0.0009645861
32485000.0 0.0008518169 -0.0005366424 0.997901212 -0.0403364002 0.9977804408 -0.0405943153 0.0007906186 -0.001124045
36232500.0 0.0008440569 -0.0005424126 0.9980279872 -0.0450893096 0.9974997407 -0.045170617 0.0007583984 -0.0012458903
39980000.0 0.0008430547 -0.0006974429 0.9972438499 -0.0493199979 0.9971264044 -0.0497989945 0.0007549666 -0.0014048927
43727500.0 0.0008615976 -0.0007350905 0.9970914282 -0.053956106 0.9967327558 -0.0543781641 0.0007508612 -0.00171096
47475000.0 0.0008607327 -0.0009273759 0.9965835377 -0.0582774101 0.9965162258 -0.0585023497 0.0006919859 -0.0018920158
51222500.0 0.0009252072 -0.0010842666 0.996120344 -0.0630151477 0.9961820328 -0.0632520373 0.0008197055 -0.0021738226
54970000.0 0.0008899418 -0.0012300689 0.995790527 -0.0678791837 0.9955394831 -0.0678886128 0.000651388 -0.0024323012
58717500.0 0.0007925166 -0.0012913088 0.995305477 -0.0720917606 0.995120453 -0.0725019682 0.0007316534 -0.0026584339
62465000.0 0.0008208687 -0.0014468862 0.9946824355 -0.0767257984 0.994641517 -0.0770258263 0.0007158618 -0.0028615914
66212500.0 0.0008819183 -0.0016197301 0.9944107301 -0.08124064 0.9945157634 -0.081283979 0.0007427343 -0.0031608044
69960000.0 0.0008848511 -0.001836228 0.9943129552 -0.0858837355 0.993930428 -0.0858408519 0.0006371921 -0.0034745191
73707500.0 0.0008972525 -0.0019390104 0.9936612482 -0.0902794713 0.9935044331 -0.090537869 0.0006925214 -0.0036847909
77455000.0 0.0009058613 -0.002119054 0.9931561254 -0.0951325188 0.9931493147 -0.0946251156 0.0007190858 -0.0039205244
81202500.0 0.0010118363 -0.0022690147 0.9926066711 -0.0992004452 0.9924276388 -0.0995098175 0.0006866251 -0.0042954905
84950000.0 0.0009545536 -0.0024863247 0.9916072611 -0.1040519015 0.9916015347 -0.104073102 0.0006788595 -0.0045060003
88697500.0 0.0009439395 -0.0026247861 0.9916833289 -0.1085670997 0.9913228907 -0.1085297432 0.0006676195 -0.0048676787
92445000.0 0.0010055764 -0.0027846398 0.9906711655 -0.1128598853 0.9908248125 -0.1130804979 0.0007071572 -0.0051823705
96192500.0 0.0010348082 -0.0030542846 0.990213231 -0.117141676 0.9900848296 -0.1175261458 0.0005722445 -0.0053974731
99940000.0 0.0010448043 -0.003238154 0.9896070178 -0.1222100039 0.9897732508 -0.1220407165 0.0008883369 -0.0053863437
103687500.0 0.0012467319 -0.0034029252 0.9891787151 -0.1263234 0.9892547602 -0.126327068 0.0009661537 -0.0058924596
107435000.0 0.0010517677 -0.0037730548 0.9884258825 -0.130722163 0.9885277856 -0.1307933504 0.0008624827 -0.0061114433
111182500.0 0.001148039 -0.003965642 0.9879416134 -0.1354936806 0.9877273795 -0.1355489693 0.0008578421 -0.0063281163
114930000.0 0.0011501589 -0.0041463171 0.9872402346 -0.1398039971 0.9871113191 -0.1395428385 0.0009591525 -0.0065328251
118677500.0 0.0010162435 -0.004422816 0.9861452293 -0.1439200411 0.98633195 -0.1442372001 0.0009398331 -0.0066663508
122425000.0 0.0010199481 -0.0045742312 0.9855151611 -0.1484251466 0.9856084448 -0.1486338836 0.0008843428 -0.0070626185
126172500.0 0.0009454539 -0.0048741424 0.9846968591 -0.1534362935 0.9849610804 -0.1532351252 0.0009777502 -0.007184958
129920000.0 0.0009327681 -0.00505038 0.9838972063 -0.1573965291 0.9842202186 -0.1574853386 0.0009413375 -0.0074584488
133667500.0 0.0006946998 -0.0053183714 0.9832053164 -0.161900044 0.983025907 -0.1619127539 0.0009760436 -0.0076448434
137415000.0 0.0006661084 -0.0054934036 0.9826003748 -0.166442276 0.9826448202 -0.1667266659 0.001046252 -0.0079213752
141162500.0 0.0005595124 -0.0056091321 0.9818236869 -0.1707101174 0.9813581531 -0.1712021578 0.001037429 -0.008065641
144910000.0 0.0004714111 -0.0059776621 0.980856218 -0.1750569156 0.9805696565 -0.1754022427 0.0009308083 -0.008315345
148657500.0 0.0002861561 -0.0061696945 0.9802142496 -0.179765195 0.9798048245 -0.1797988588 0.000842609 -0.0084929378
152405000.0 0.000215141 -0.0062835784 0.9790734831 -0.1843001274 0.9789772729 -0.1840276076 0.0008950491 -0.0086649911
156152500.0 6.56893e-05 -0.0065576607 0.9781842403 -0.1885457149 0.9782276375 -0.1883798958 0.0008139356 -0.0088873359
159900000.0 -0.0001345176 -0.006723598 0.9775093813 -0.1928126629 0.9771440212 -0.1928917688 0.0006781687 -0.009156502
163647500.0 -0.0002316395 -0.0068741898 0.9767098538 -0.197376656 0.9762672057 -0.1972838426 0.0006684069 -0.0092958377
167395000.0 -0.0004262762 -0.0070549397 0.9751458491 -0.2021611929 0.9751618124 -0.2014787897 0.0005733255 -0.0095670636
171142500.0 -0.0004882504 -0.0072238361 0.9746111816 -0.2063130161 0.974524326 -0.206146671 0.0004740173 -0.0098606815
174890000.0 -0.0006540742 -0.0073461541 0.9735118306 -0.2104658816 0.9735710878 -0.2104148637 0.000380537 -0.0100132928
178637500.0 -0.0008035923 -0.0075749967 0.9726915757 -0.2147807491 0.9724043503 -0.2146536882 0.0001497032 -0.0103548617
182385000.0 -0.0009822915 -0.007676673 0.9715398588 -0.2192469943 0.9714299699 -0.2192050588 7.23463e-05 -0.0105530754
186132500.0 -0.0011415454 -0.00795476 0.9703625989 -0.2237382698 0.9702975265 -0.2237837323 -0.0001202656 -0.0108313431
189880000.0 -0.001072986 -0.0081314583 0.9692742095 -0.2283478947 0.9691156402 -0.2285130567 -0.0001275653 -0.011066303
193627500.0 -0.001289785 -0.0083762375 0.9684918897 -0.2324524567 0.9679163713 -0.2323227737 -0.0002926747 -0.0113692761
197375000.0 -0.0013896629 -0.0084922168 0.9669872956 -0.2368843226 0.9669486618 -0.2367759493 -0.0005132753 -0.0117020642
201122500.0 -0.001483159 -0.008667267 0.9660989878 -0.2412857732 0.9661112541 -0.2409215263 -0.0005377479 -0.0119506057
204870000.0 -0.001474472 -0.0089242691 0.9648305772 -0.2452593931 0.9645642218 -0.2452001199 -0.0007572949 -0.0122347092
208617500.0 -0.0016227732 -0.0091755757 0.9637208465 -0.2497733665 0.963904785 -0.2496335462 -0.0009320084 -0.0125566948
212365000.0 -0.0015814421 -0.0094382633 0.9622690628 -0.2541012271 0.9622001937 -0.2542923902 -0.0010489326 -0.0128284559
216112500.0 -0.0017529688 -0.0096382956 0.9611567239 -0.2583240747 0.9615800264 -0.2584713117 -0.0010868884 -0.0131573358
219860000.0 -0.0016732458 -0.0100049023 0.9599166438 -0.2629865107 0.9597946766 -0.2628197063 -0.0013140453 -0.0134642751
223607500.0 -0.0016540651 -0.0099600568 0.9588937438 -0.2671307382 0.9588160641 -0.2671717269 -0.0015143932 -0.0136913179
227355000.0 -0.0016003404 -0.0103326038 0.9571556524 -0.27134514 0.9575976336 -0.271173569 -0.0015330713 -0.0140008486
231102500.0 -0.001654134 -0.0108122479 0.9564390581 -0.2759602644 0.9563675374 -0.2758425298 -0.0017691836 -0.0142810834
234850000.0 -0.0016374846 -0.0108925482 0.9548493514 -0.2800935686 0.9550494037 -0.2801939938 -0.0018516251 -0.0145990596
238597500.0 -0.0016982543 -0.0112657734 0.9538532225 -0.284212735 0.9536826427 -0.2841826331 -0.0018662727 -0.0148150936
242345000.0 -0.0016842835 -0.0115581272 0.9524260521 -0.2885113312 0.9523132271 -0.288325503 -0.0020192909 -0.0151368354
246092500.0 -0.0018190127 -0.0118520117 0.9511105138 -0.2930023646 0.9509460324 -0.2928621685 -0.0021070324 -0.0153914821
249840000.0 -0.0018241211 -0.0122245776 0.9493044496 -0.2970726921 0.9495034078 -0.297157186 -0.0024073322 -0.01566219
253587500.0 -0.0018574327 -0.012628619 0.947935289 -0.301565359 0.9480619721 -0.3014460275 -0.0024573266 -0.0158643979
257335000.0 -0.00186322 -0.0128317364 0.9470403966 -0.3057680999 0.9468533434 -0.3056260457 -0.0024463179 -0.0160952937
261082500.0 -0.0020422271 -0.0131989592 0.9453676721 -0.3100665739 0.9453023828 -0.3096650263 -0.0026355108 -0.0163503904
264830000.0 -0.0021700665 -0.0134036582 0.9438425435 -0.3147261046 0.9437305104 -0.314364217 -0.0028188442 -0.0165411192
268577500.0 -0.0023441162 -0.0137606915 0.9421885266 -0.3184172703 0.9422356364 -0.3187079882 -0.0029288294 -0.0167402793
272325000.0 -0.0024522343 -0.0140553705 0.9410002592 -0.3224937415 0.9410258982 -0.3225090304 -0.0029934444 -0.0169629376
276072500.0 -0.0026520219 -0.0143725781 0.9395399724 -0.3270938604 0.9394075231 -0.3269422601 -0.0030676078 -0.0171187456
279820000.0 -0.0027524518 -0.0144757316 0.9381831439 -0.3311972189 0.9379009303 -0.3307236804 -0.0032251511 -0.0172723169
283567500.0 -0.0029628433 -0.0146549553 0.9364141649 -0.3354571515 0.9364289494 -0.3353801508 -0.0034020068 -0.0175620147
287315000.0 -0.003151019 -0.0148697866 0.9349077752 -0.3398585231 0.934736332 -0.3395930743 -0.0035103912 -0.0177254395
291062500.0 -0.0032710346 -0.0148486357 0.9333142881 -0.3438659488 0.9331362761 -0.3437182551 -0.0037280615 -0.0179264381
294810000.0 -0.0035166518 -0.0150098064 0.9317184757 -0.3477349614 0.931554661 -0.3477316842 -0.0037539925 -0.0179072569
298557500.0 -0.0035375855 -0.0151366315 0.9299747915 -0.3521704524 0.9297920991 -0.3520677553 -0.0039718185 -0.0180344922
302305000.0 -0.0037743156 -0.0152693291 0.9283378564 -0.356485913 0.9283066605 -0.3562279175 -0.0040130087 -0.0181543342
306052500.0 -0.0039128924 -0.0152880868 0.9265015453 -0.3604454721 0.926487435 -0.3603096088 -0.0042474006 -0.0184502773
309800000.0 -0.0041291239 -0.0152745739 0.9249038625 -0.3645653169 0.9250262434 -0.3646249989 -0.004492079 -0.0184900712
313547500.0 -0.004286913 -0.0152638264 0.9232396458 -0.3687900284 0.9233961807 -0.368677362 -0.0046426015 -0.0187401524
317295000.0 -0.0044321502 -0.0153456636 0.9216712063 -0.3728035034 0.9212981784 -0.3726641571 -0.0048524452 -0.0187725772
321042500.0 -0.0046036894 -0.0153739265 0.9197078572 -0.3772496378 0.9196444207 -0.3767366434 -0.005109418 -0.0189103169
324790000.0 -0.0046589558 -0.0154442014 0.9181939625 -0.3814500182 0.9183906659 -0.3810422802 -0.0053202963 -0.019035114
328537500.0 -0.0047767416 -0.01546926 0.9162734145 -0.3856540182 0.916109879 -0.3851128919 -0.0055038374 -0.0193605064
332285000.0 -0.0049471671 -0.01540363 0.9144276859 -0.3893221478 0.9143956786 -0.3892787487 -0.0057548875 -0.0194342689
336032500.0 -0.005050651 -0.0154734466 0.9127215687 -0.3930930965 0.9129006228 -0.3930588517 -0.0059709529 -0.0196390957
339780000.0 -0.0050813023 -0.0154825347 0.9110688282 -0.3973417128 0.9109976582 -0.3974415642 -0.0061328767 -0.0198795937
343527500.0 -0.0051198371 -0.0157230904 0.9088093718 -0.4016838611 0.9092692938 -0.4013794073 -0.0064186294 -0.0200728742
347275000.0 -0.005255612 -0.015790134 0.9071204082 -0.4058272793 0.9070092582 -0.4052739415 -0.0066873282 -0.0202823344
351022500.0 -0.0053578748 -0.0160224185 0.9053402994 -0.409547492 0.9053042572 -0.4094608207 -0.0068363284 -0.0203991478
354770000.0 -0.005467694 -0.0161075431 0.9036664788 -0.413817869 0.9034285463 -0.4138296701 -0.0070624613 -0.0205827649
358517500.0 -0.0055509517 -0.0162991888 0.9014578813 -0.4179947268 0.9014897452 -0.4179535817 -0.007230349 -0.0208073811
362265000.0 -0.0055508561 -0.0165100861 0.8996471789 -0.4219288547 0.8994712123 -0.4215909702 -0.0075318046 -0.0210555597
366012500.0 -0.005619107 -0.0166629907 0.8975527633 -0.4255901973 0.8977657506 -0.4255557071 -0.0078023571 -0.0214013643
369760000.0 -0.0056285294 -0.0169042894 0.8956477928 -0.4301844576 0.8959014649 -0.4299754521 -0.0079482163 -0.0216220057
373507500.0 -0.0059052362 -0.0171047229 0.8937971303 -0.4336257411 0.8936962394 -0.4339059197 -0.0081719239 -0.0217717805
377255000.0 -0.0060299329 -0.0175312163 0.8915884874 -0.4378529311 0.8914978906 -0.4377873005 -0.0083801588 -0.02206121
381002500.0 -0.0062417614 -0.0177450701 0.8895399097 -0.4421202876 0.8896441059 -0.4417487887 -0.0085178714 -0.0222536327
384750000.0 -0.006383031 -0.0180789859 0.8880172416 -0.4460816618 0.8876776993 -0.4459056859 -0.0089177515 -0.0225725183
388497500.0 -0.006190426 -0.0182539568 0.8852800575 -0.4501258292 0.8855932472 -0.4500903365 -0.0089884704 -0.0226093739
392245000.0 -0.0064375405 -0.0184723617 0.8833741634 -0.4536857637 0.8833315427 -0.4537336706 -0.0093134701 -0.0229537114
395992500.0 -0.0066213181 -0.0188650139 0.8812518105 -0.457700946 0.8816590465 -0.4575875305 -0.009436853 -0.0231626478
399740000.0 -0.0069146717 -0.0190917142 0.8794254178 -0.4616336704 0.87937073 -0.4618011265 -0.0095700088 -0.0233535697
403487500.0 -0.0070866419 -0.0192992952 0.8771800877 -0.466051536 0.8772194198 -0.4654640503 -0.0099953442 -0.0235905388
407235000.0 -0.0073380995 -0.0194720548 0.8749541574 -0.469524374 0.8751224854 -0.4695134919 -0.0100412004 -0.0236913583
410982500.0 -0.0075687724 -0.0198230948 0.8730693243 -0.4734979289 0.8729252436 -0.4736807053 -0.0103678933 -0.0239641376
414730000.0 -0.0078783947 -0.0199053127 0.8708225293 -0.4776559688 0.870487904 -0.4773242811 -0.0105880086 -0.0239612086
418477500.0 -0.0080900011 -0.0201682498 0.8682736082 -0.4813277504 0.8684927848 -0.481491646 -0.0106873384 -0.0243058296
422225000.0 -0.0083318721 -0.0203251725 0.8662021007 -0.4851288904 0.8662844629 -0.485114032 -0.0110082852 -0.024367541
425972500.0 -0.0087145495 -0.0204677445 0.8642518792 -0.4888168127 0.8640169401 -0.4890868746 -0.011165092 -0.0245628084
429720000.0 -0.008980495 -0.0205597591 0.8615739922 -0.4929855178 0.8616506205 -0.4925598349 -0.0114322666 -0.0248005436
433467500.0 -0.0093652072 -0.0207430524 0.8592662992 -0.4967244396 0.8595341816 -0.4964587213 -0.0115945471 -0.0247372118
437215000.0 -0.0096852913 -0.020700582 0.8572061476 -0.5004685746 0.8573629475 -0.5005098496 -0.0118761297 -0.0248570222
440962500.0 -0.0099097086 -0.0208200066 0.8547206299 -0.5042820624 0.8550116842 -0.5042734475 -0.0120662518 -0.0250549425
444710000.0 -0.0102862131 -0.020723475 0.8526257332 -0.5082755585 0.8525048811 -0.5082286567 -0.0123263269 -0.025111878
448457500.0 -0.0104142711 -0.0207540452 0.8498263299 -0.5121850319 0.8505590159 -0.5121280396 -0.0125941673 -0.025256772
452205000.0 -0.0106981259 -0.0206491356 0.8480139747 -0.5158113472 0.8478838181 -0.515663601 -0.0128102567 -0.0253676251
455952500.0 -0.010923743 -0.0207170074 0.8453232166 -0.5197901999 0.8456519827 -0.5196210071 -0.0129815144 -0.0255068418
459700000.0 -0.0111913268 -0.0206031614 0.8428713523 -0.5235780189 0.8434577376 -0.5232523618 -0.013229285 -0.0257235743
463447500.0 -0.0114386073 -0.0206557517 0.8408894788 -0.5270299914 0.8407980746 -0.5270317227 -0.0135246251 -0.0258077384
467195000.0 -0.0115783448 -0.0206735049 0.8385304359 -0.5308749047 0.8381796433 -0.5308966604 -0.0137853725 -0.0257962922
470942500.0 -0.0118195333 -0.0205841644 0.8359495659 -0.5347483808 0.8357103271 -0.534693606 -0.0140932643 -0.0258807577
474690000.0 -0.0120279586 -0.0205562054 0.8332888727 -0.5382554197 0.8333974485 -0.5384406222 -0.0144227841 -0.0260320013
478437500.0 -0.0121563735 -0.0205699687 0.8311207539 -0.5421234306 0.8308831269 -0.5418258224 -0.0146137415 -0.0262164466
482185000.0 -0.0123481146 -0.020503006 0.8282627537 -0.5456431585 0.828486378 -0.5456364665 -0.0148946609 -0.0263245527
485932500.0 -0.012502608 -0.0205146408 0.825819856 -0.5494621386 0.8260943234 -0.5495934058 -0.0151967391 -0.0264322954
489680000.0 -0.0127142012 -0.0205755905 0.8235401184 -0.5531083948 0.8234943768 -0.552961881 -0.0155187733 -0.0266749657
493427500.0 -0.0128485317 -0.0207676983 0.821097068 -0.5567234436 0.8211285615 -0.5564861166 -0.0157981207 -0.0267063178
497175000.0 -0.0132351675 -0.0207885411 0.8183571224 -0.5606304545 0.8184863143 -0.5603745657 -0.0160634939 -0.0268405028
500922500.0 -0.0133684146 -0.0209920489 0.8157224937 -0.5637817665 0.8159338986 -0.5639416537 -0.0163667867 -0.0270049833
504670000.0 -0.013644446 -0.0211564281 0.8136036715 -0.5677753625 0.8132151425 -0.5675466474 -0.0165424887 -0.0272547307
508417500.0 -0.0138838448 -0.0214026426 0.8107043715 -0.5712948047 0.8108935947 -0.5710201738 -0.0168514128 -0.027420743
512165000.0 -0.0139495504 -0.0216440744 0.8079918576 -0.5750325783 0.8081762371 -0.5747504135 -0.0171125501 -0.0275642582
515912500.0 -0.0144111154 -0.0218527626 0.8054781354 -0.5788344328 0.8053002595 -0.5783748879 -0.0175561534 -0.0278453758
519660000.0 -0.0146524295 -0.022058825 0.8024859627 -0.5819736132 0.8029249291 -0.5816827775 -0.0177511793 -0.027873564
523407500.0 -0.0149319183 -0.0222037291 0.8001868263 -0.5858629094 0.7999133011 -0.5856031301 -0.0180571262 -0.0280742954
527155000.0 -0.0151869138 -0.0226148886 0.7974040678 -0.5894746956 0.7974313002 -0.5894036275 -0.0182315171 -0.0283797711
530902500.0 -0.0155759652 -0.0228393959 0.7947865395 -0.5931771424 0.7948718386 -0.5925721347 -0.0186200869 -0.0284632123
534650000.0 -0.0160422948 -0.0231364915 0.7916706205 -0.5961728913 0.7919680958 -0.5963858075 -0.0188522364 -0.0286299027
538397500.0 -0.0164123359 -0.0232663128 0.7893025711 -0.6000714162 0.7889137304 -0.5998959417 -0.0191631173 -0.0287617531
542145000.0 -0.0166850283 -0.0236812681 0.7865562146 -0.6039612878 0.7865236656 -0.6033732956 -0.0195417427 -0.0289057281
545892500.0 -0.0171508191 -0.0238742743 0.7838280977 -0.6068966738 0.7835139494 -0.6069262921 -0.019797799 -0.0290929978
549640000.0 -0.0175339301 -0.0240983956 0.7805385691 -0.6105468129 0.7809249602 -0.610296591 -0.020153896 -0.0292720116
553387500.0 -0.0179187341 -0.0241785284 0.7778767996 -0.6138858532 0.7782953595 -0.6136038804 -0.020480893 -0.0292807622
557135000.0 -0.0183099 -0.0242904435 0.7751762845 -0.6174672669 0.7754130105 -0.6171876373 -0.0207654586 -0.0293561718
560882500.0 -0.0186076875 -0.0244791984 0.7720823174 -0.6205816518 0.7725377347 -0.6210078879 -0.0212105334 -0.0293823241
564630000.0 -0.0190566318 -0.0246332526 0.7694318322 -0.624150453 0.7696372788 -0.6241672014 -0.0214112695 -0.02948491
568377500.0 -0.0194610765 -0.0245893453 0.76663446 -0.6277332481 0.7667526211 -0.6271935657 -0.0217760991 -0.0295561238
572125000.0 -0.0197330205 -0.0247187066 0.7637106758 -0.630518776 0.7640222953 -0.6307744506 -0.0221404521 -0.0297217325
575872500.0 -0.0200363402 -0.0246253003 0.7609557948 -0.6345160075 0.7611844238 -0.6342230901 -0.0224840255 -0.0297782298
579620000.0 -0.0203008107 -0.0246905689 0.7579236319 -0.6378806338 0.7580748229 -0.6378335735 -0.0228596809 -0.0296669053
583367500.0 -0.0206637641 -0.0247366555 0.7551102921 -0.6412495512 0.7552228744 -0.6414641006 -0.0232540392 -0.029618189
587115000.0 -0.0209066 -0.0246492709 0.7523870214 -0.64458053 0.7525160055 -0.64457244 -0.0235969965 -0.0296577584
590862500.0 -0.021093389 -0.0245679769 0.7491312773 -0.6478535633 0.7497389869 -0.6476849205 -0.023957175 -0.02968706
594610000.0 -0.0213295349 -0.0246078228 0.7460259966 -0.6508461912 0.7461694387 -0.6514609932 -0.0242587417 -0.0296421173
598357500.0 -0.0214221118 -0.0244761313 0.743607109 -0.6547005893 0.7436077934 -0.6545518807 -0.0247687814 -0.0296519947
602105000.0 -0.0216072154 -0.0243790439 0.740179828 -0.6577192623 0.7404905551 -0.6578404617 -0.0249465291 -0.0296330085
605852500.0 -0.0217323475 -0.0243056089 0.7369932155 -0.6613934765 0.7376193878 -0.6609830558 -0.0254212756 -0.0296860488
609600000.0 -0.0217817506 -0.0241463555 0.7344694264 -0.6639187578 0.7344255555 -0.6643720561 -0.0256828336 -0.0295621182
613347500.0 -0.0218570138 -0.0241273366 0.73130213 -0.667675849 0.731433728 -0.6675510937 -0.0260718957 -0.0296046591
617095000.0 -0.0220895814 -0.0240425091 0.7284023997 -0.6707679181 0.7284142923 -0.6708766133 -0.0264646918 -0.0295504037
620842500.0 -0.0220574721 -0.0240266042 0.7252074555 -0.6741287815 0.7251611119 -0.6742983884 -0.0269477058 -0.0296468801
